name,type,start_time,duration,"mosi","miso"
"SPI","enable",0.121210942,0.000000001,,
"SPI","result",0.121366679,0.000848122,0xFE,0x47
"SPI","disable",0.122247168,0.000000001,,
"SPI","enable",0.12232781,0.000000001,,
"SPI","result",0.122500207,0.000848121,0xB8,0x01
"SPI","disable",0.123382132,0.000000001,,
"SPI","enable",0.123469432,0.000000001,,
"SPI","result",0.123633734,0.000848122,0xB8,0x8B
"SPI","disable",0.124523759,0.000000001,,
"SPI","enable",0.12460821,0.000000001,,
"SPI","result",0.124767268,0.000848114,0x74,0x87
"SPI","disable",0.125644443,0.000000001,,
"SPI","enable",0.22231393,0.000000001,,
"SPI","result",0.222477381,0.000848122,0xFE,0x47
"SPI","disable",0.223368253,0.000000001,,
"SPI","enable",0.223448881,0.000000001,,
"SPI","result",0.223610907,0.000848122,0xB8,0x01
"SPI","disable",0.224485107,0.000000001,,
"SPI","enable",0.224572427,0.000000001,,
"SPI","result",0.224744439,0.000848118,0xB8,0x8B
"SPI","disable",0.225626746,0.000000001,,
"SPI","enable",0.225711202,0.000000001,,
"SPI","result",0.225877967,0.000848118,0x74,0x87
"SPI","disable",0.226765518,0.000000001,,
"SPI","enable",0.323435006,0.000000001,,
"SPI","result",0.323588082,0.000848122,0xFE,0x47
"SPI","disable",0.324471241,0.000000001,,
"SPI","enable",0.324551877,0.000000001,,
"SPI","result",0.324721607,0.000848125,0xB8,0x01
"SPI","disable",0.325606207,0.000000001,,
"SPI","enable",0.325693501,0.000000001,,
"SPI","result",0.325855134,0.000848124,0xB8,0x8B
"SPI","disable",0.326729734,0.000000001,,
"SPI","enable",0.326814187,0.000000001,,
"SPI","result",0.32698867,0.000848116,0x74,0x87
"SPI","disable",0.327868493,0.000000001,,
"SPI","enable",0.424537997,0.000000001,,
"SPI","result",0.424698651,0.00084812,0xFE,0x47
"SPI","disable",0.425574212,0.000000001,,
"SPI","enable",0.425654862,0.000000001,,
"SPI","result",0.425832174,0.000848123,0xB8,0x01
"SPI","disable",0.42670919,0.000000001,,
"SPI","enable",0.426796493,0.000000001,,
"SPI","result",0.426965697,0.000848128,0xB8,0x8B
"SPI","disable",0.427850812,0.000000001,,
"SPI","enable",0.427935264,0.000000001,,
"SPI","result",0.428099235,0.000848117,0x74,0x87
"SPI","disable",0.428989577,0.000000001,,
"SPI","enable",0.525674312,0.000000001,,
"SPI","result",0.525809347,0.000848123,0xFE,0x47
"SPI","disable",0.526692433,0.000000001,,
"SPI","enable",0.526773089,0.000000001,,
"SPI","result",0.526942874,0.000848122,0xB8,0x01
"SPI","disable",0.527827402,0.000000001,,
"SPI","enable",0.527914718,0.000000001,,
"SPI","result",0.5280764,0.000848124,0xB8,0x8B
"SPI","disable",0.528950944,0.000000001,,
"SPI","enable",0.529035393,0.000000001,,
"SPI","result",0.529209932,0.000848119,0x74,0x87
"SPI","disable",0.530089708,0.000000001,,
"SPI","enable",0.626737307,0.000000001,,
"SPI","result",0.62692005,0.000848122,0xFE,0x47
"SPI","disable",0.627809711,0.000000001,,
"SPI","enable",0.627890352,0.000000001,,
"SPI","result",0.628053576,0.000848123,0xB8,0x01
"SPI","disable",0.628944672,0.000000001,,
"SPI","enable",0.629031988,0.000000001,,
"SPI","result",0.629187102,0.000848125,0xB8,0x8B
"SPI","disable",0.630068215,0.000000001,,
"SPI","enable",0.630152664,0.000000001,,
"SPI","result",0.630320637,0.000848117,0x74,0x87
"SPI","disable",0.631206985,0.000000001,,
"SPI","enable",0.727875527,0.000000001,,
"SPI","result",0.728030757,0.000848122,0xFE,0x47
"SPI","disable",0.728911749,0.000000001,,
"SPI","enable",0.728992387,0.000000001,,
"SPI","result",0.729164281,0.000848124,0xB8,0x01
"SPI","disable",0.730915075,0.000000001,,
"SPI","enable",0.731002381,0.000000001,,
"SPI","result",0.731204633,0.000848122,0xB8,0x8B
"SPI","disable",0.732092892,0.000000001,,
"SPI","enable",0.73217733,0.000000001,,
"SPI","result",0.732338167,0.000848116,0x74,0x87
"SPI","disable",0.733213538,0.000000001,,
"SPI","enable",0.829897337,0.000000001,,
"SPI","result",0.830048283,0.000848121,0xFE,0x47
"SPI","disable",0.830933563,0.000000001,,
"SPI","enable",0.831014202,0.000000001,,
"SPI","result",0.831181808,0.000848123,0xB8,0x01
"SPI","disable",0.832068521,0.000000001,,
"SPI","enable",0.832155828,0.000000001,,
"SPI","result",0.832315337,0.000848122,0xB8,0x8B
"SPI","disable",0.833192063,0.000000001,,
"SPI","enable",0.833276508,0.000000001,,
"SPI","result",0.833448869,0.000848117,0x74,0x87
"SPI","disable",0.834488887,0.000000001,,
"SPI","enable",0.931881059,0.000000001,,
"SPI","result",0.932065796,0.000848114,0xFE,0x47
"SPI","disable",0.932953472,0.000000001,,
"SPI","enable",0.933034109,0.000000001,,
"SPI","result",0.933199308,0.000848122,0xB8,0x01
"SPI","disable",0.934088416,0.000000001,,
"SPI","enable",0.934175742,0.000000001,,
"SPI","result",0.934332834,0.000848117,0xB8,0x8B
"SPI","disable",0.935211966,0.000000001,,
"SPI","enable",0.935296421,0.000000001,,
"SPI","result",0.93546636,0.000848112,0x74,0x87
"SPI","disable",0.936350735,0.000000001,,
"SPI","enable",1.033022141,0.000000001,,
"SPI","result",1.033176385,0.000848113,0xFE,0x47
"SPI","disable",1.034058364,0.000000001,,
"SPI","enable",1.034139001,0.000000001,,
"SPI","result",1.034309902,0.000848123,0xB8,0x01
"SPI","disable",1.035193322,0.000000001,,
"SPI","enable",1.035280629,0.000000001,,
"SPI","result",1.03544343,0.000848123,0xB8,0x8B
"SPI","disable",1.036334951,0.000000001,,
"SPI","enable",1.036419401,0.000000001,,
"SPI","result",1.036576962,0.000848119,0x74,0x87
"SPI","disable",1.037465146,0.000000001,,
"SPI","enable",1.134118455,0.000000001,,
"SPI","result",1.134287082,0.000848123,0xFE,0x47
"SPI","disable",1.13517277,0.000000001,,
"SPI","enable",1.135253418,0.000000001,,
"SPI","result",1.135420606,0.000848126,0xB8,0x01
"SPI","disable",1.136307729,0.000000001,,
"SPI","enable",1.136395048,0.000000001,,
"SPI","result",1.136554132,0.000848126,0xB8,0x8B
"SPI","disable",1.137431277,0.000000001,,
"SPI","enable",1.137515725,0.000000001,,
"SPI","result",1.137687669,0.000848116,0x74,0x87
"SPI","disable",1.138579567,0.000000001,,
"SPI","enable",1.23578703,0.000000001,,
"SPI","result",1.235964551,0.000848122,0xFE,0x47
"SPI","disable",1.236841326,0.000000001,,
"SPI","enable",1.236921984,0.000000001,,
"SPI","result",1.237098073,0.000848127,0xB8,0x01
"SPI","disable",1.237976306,0.000000001,,
"SPI","enable",1.238063607,0.000000001,,
"SPI","result",1.2382316,0.000848127,0xB8,0x8B
"SPI","disable",1.239117933,0.000000001,,
"SPI","enable",1.239202377,0.000000001,,
"SPI","result",1.239365141,0.000848114,0x74,0x87
"SPI","disable",1.240248127,0.000000001,,
"SPI","enable",1.336923338,0.000000001,,
"SPI","result",1.337075257,0.000848123,0xFE,0x47
"SPI","disable",1.338916477,0.000000001,,
"SPI","enable",1.338997114,0.000000001,,
"SPI","result",1.339115609,0.000848121,0xB8,0x01
"SPI","disable",1.339997158,0.000000001,,
"SPI","enable",1.340084469,0.000000001,,
"SPI","result",1.340249135,0.000848123,0xB8,0x8B
"SPI","disable",1.341138792,0.000000001,,
"SPI","enable",1.341223237,0.000000001,,
"SPI","result",1.341382669,0.000848116,0x74,0x87
"SPI","disable",1.342259467,0.000000001,,
"SPI","enable",1.439146051,0.000000001,,
"SPI","result",1.439319497,0.00084812,0xFE,0x47
"SPI","disable",1.440200374,0.000000001,,
"SPI","enable",1.44028101,0.000000001,,
"SPI","result",1.440453022,0.000848122,0xB8,0x01
"SPI","disable",1.441335333,0.000000001,,
"SPI","enable",1.441422638,0.000000001,,
"SPI","result",1.441586549,0.000848123,0xB8,0x8B
"SPI","disable",1.442468382,0.000000001,,
"SPI","enable",1.442552843,0.000000001,,
"SPI","result",1.442720082,0.000848117,0x74,0x87
"SPI","disable",1.443607158,0.000000001,,
"SPI","enable",1.540252854,0.000000001,,
"SPI","result",1.540430065,0.00084812,0xFE,0x47
"SPI","disable",1.541307171,0.000000001,,
"SPI","enable",1.5414059,0.000000001,,
"SPI","result",1.541563587,0.000848125,0xB8,0x01
"SPI","disable",1.542713492,0.000000001,,
"SPI","enable",1.542800797,0.000000001,,
"SPI","result",1.542923822,0.000848123,0xB8,0x8B
"SPI","disable",1.543800848,0.000000001,,
"SPI","enable",1.543885301,0.000000001,,
"SPI","result",1.544057355,0.000848118,0x74,0x87
"SPI","disable",1.544939611,0.000000001,,
"SPI","enable",1.641625295,0.000000001,,
"SPI","result",1.641767477,0.000848122,0xFE,0x47
"SPI","disable",1.642643427,0.000000001,,
"SPI","enable",1.642724072,0.000000001,,
"SPI","result",1.642901001,0.000848126,0xB8,0x01
"SPI","disable",1.643778397,0.000000001,,
"SPI","enable",1.643865706,0.000000001,,
"SPI","result",1.644034529,0.000848125,0xB8,0x8B
"SPI","disable",1.644920009,0.000000001,,
"SPI","enable",1.645004476,0.000000001,,
"SPI","result",1.645168062,0.000848118,0x74,0x87
"SPI","disable",1.646050225,0.000000001,,
"SPI","enable",1.742733044,0.000000001,,
"SPI","result",1.742878184,0.000848123,0xFE,0x47
"SPI","disable",1.744275792,0.000000001,,
"SPI","enable",1.744356461,0.000000001,,
"SPI","result",1.74446512,0.000848125,0xB8,0x01
"SPI","disable",1.745356502,0.000000001,,
"SPI","enable",1.745443815,0.000000001,,
"SPI","result",1.745598647,0.000848126,0xB8,0x8B
"SPI","disable",1.746480044,0.000000001,,
"SPI","enable",1.746564489,0.000000001,,
"SPI","result",1.746732184,0.000848116,0x74,0x87
"SPI","disable",1.74761881,0.000000001,,
"SPI","enable",1.844280695,0.000000001,,
"SPI","result",1.844442301,0.000848125,0xFE,0x47
"SPI","disable",1.845316888,0.000000001,,
"SPI","enable",1.845397553,0.000000001,,
"SPI","result",1.84557583,0.000848123,0xB8,0x01
"SPI","disable",1.846451878,0.000000001,,
"SPI","enable",1.846539179,0.000000001,,
"SPI","result",1.846709358,0.000848123,0xB8,0x8B
"SPI","disable",1.847593507,0.000000001,,
"SPI","enable",1.847677952,0.000000001,,
"SPI","result",1.847842894,0.000848114,0x74,0x87
"SPI","disable",1.84873228,0.000000001,,
"SPI","enable",1.945415098,0.000000001,,
"SPI","result",1.945553013,0.000848123,0xFE,0x47
"SPI","disable",1.946433229,0.000000001,,
"SPI","enable",1.946513874,0.000000001,,
"SPI","result",1.946686543,0.000848119,0xB8,0x01
"SPI","disable",1.947568198,0.000000001,,
"SPI","enable",1.947655503,0.000000001,,
"SPI","result",1.947820067,0.000848123,0xB8,0x8B
"SPI","disable",1.948709827,0.000000001,,
"SPI","enable",1.948794272,0.000000001,,
"SPI","result",1.948953602,0.000848117,0x74,0x87
"SPI","disable",1.949830507,0.000000001,,
"SPI","enable",2.046499987,0.000000001,,
"SPI","result",2.046663582,0.000848122,0xFE,0x47
"SPI","disable",2.047554317,0.000000001,,
"SPI","enable",2.047634955,0.000000001,,
"SPI","result",2.047797109,0.000848121,0xB8,0x01
"SPI","disable",2.048671187,0.000000001,,
"SPI","enable",2.048758483,0.000000001,,
"SPI","result",2.048930634,0.000848124,0xB8,0x8B
"SPI","disable",2.049812812,0.000000001,,
"SPI","enable",2.049897263,0.000000001,,
"SPI","result",2.050064169,0.000848117,0x74,0x87
"SPI","disable",2.050951582,0.000000001,,
"SPI","enable",2.147621068,0.000000001,,
"SPI","result",2.147774291,0.000848121,0xFE,0x47
"SPI","disable",2.148657302,0.000000001,,
"SPI","enable",2.148737944,0.000000001,,
"SPI","result",2.148907815,0.000848123,0xB8,0x01
"SPI","disable",2.149792262,0.000000001,,
"SPI","enable",2.149879552,0.000000001,,
"SPI","result",2.150041341,0.000848125,0xB8,0x8B
"SPI","disable",2.150915803,0.000000001,,
"SPI","enable",2.151000249,0.000000001,,
"SPI","result",2.151174877,0.000848116,0x74,0x87
"SPI","disable",2.152054567,0.000000001,,
"SPI","enable",2.248724063,0.000000001,,
"SPI","result",2.248884997,0.000848123,0xFE,0x47
"SPI","disable",2.24976029,0.000000001,,
"SPI","enable",2.24984093,0.000000001,,
"SPI","result",2.250018504,0.000848143,0xB8,0x01
"SPI","disable",2.250895252,0.000000001,,
"SPI","enable",2.250982556,0.000000001,,
"SPI","result",2.251152051,0.000848124,0xB8,0x8B
"SPI","disable",2.252036875,0.000000001,,
"SPI","enable",2.252121327,0.000000001,,
"SPI","result",2.252285584,0.000848117,0x74,0x87
"SPI","disable",2.253175642,0.000000001,,
"SPI","enable",2.34984514,0.000000001,,
"SPI","result",2.349995705,0.000848126,0xFE,0x47
"SPI","disable",2.35088137,0.000000001,,
"SPI","enable",2.350962009,0.000000001,,
"SPI","result",2.351129233,0.000848123,0xB8,0x01
"SPI","disable",2.352016317,0.000000001,,
"SPI","enable",2.352103631,0.000000001,,
"SPI","result",2.352262759,0.000848125,0xB8,0x8B
"SPI","disable",2.353139862,0.000000001,,
"SPI","enable",2.353224317,0.000000001,,
"SPI","result",2.353396293,0.00084812,0x74,0x87
"SPI","disable",2.354278635,0.000000001,,
"SPI","enable",2.450948123,0.000000001,,
"SPI","result",2.451106421,0.000848121,0xFE,0x47
"SPI","disable",2.451984349,0.000000001,,
"SPI","enable",2.452064981,0.000000001,,
"SPI","result",2.452239944,0.000848125,0xB8,0x01
"SPI","disable",2.453119313,0.000000001,,
"SPI","enable",2.453206622,0.000000001,,
"SPI","result",2.453373471,0.000848125,0xB8,0x8B
"SPI","disable",2.454260943,0.000000001,,
"SPI","enable",2.454345393,0.000000001,,
"SPI","result",2.454507007,0.000848118,0x74,0x87
"SPI","disable",2.455381618,0.000000001,,
"SPI","enable",2.552065398,0.000000001,,
"SPI","result",2.552216991,0.000848122,0xFE,0x47
"SPI","disable",2.553101624,0.000000001,,
"SPI","enable",2.553182269,0.000000001,,
"SPI","result",2.553350516,0.000848123,0xB8,0x01
"SPI","disable",2.554236587,0.000000001,,
"SPI","enable",2.554323887,0.000000001,,
"SPI","result",2.554484046,0.000848121,0xB8,0x8B
"SPI","disable",2.555360127,0.000000001,,
"SPI","enable",2.555444571,0.000000001,,
"SPI","result",2.555617578,0.000848116,0x74,0x87
"SPI","disable",2.556498898,0.000000001,,
"SPI","enable",2.653164574,0.000000001,,
"SPI","result",2.653327698,0.000848121,0xFE,0x47
"SPI","disable",2.654218878,0.000000001,,
"SPI","enable",2.654299531,0.000000001,,
"SPI","result",2.654461224,0.000848123,0xB8,0x01
"SPI","disable",2.655338606,0.000000001,,
"SPI","enable",2.655425923,0.000000001,,
"SPI","result",2.655594752,0.000848122,0xB8,0x8B
"SPI","disable",2.65648023,0.000000001,,
"SPI","enable",2.656564694,0.000000001,,
"SPI","result",2.656728285,0.000848117,0x74,0x87
"SPI","disable",2.657619017,0.000000001,,
"SPI","enable",2.754302789,0.000000001,,
"SPI","result",2.754438409,0.000848122,0xFE,0x47
"SPI","disable",2.755320924,0.000000001,,
"SPI","enable",2.755401563,0.000000001,,
"SPI","result",2.755571937,0.000848121,0xB8,0x01
"SPI","disable",2.756455889,0.000000001,,
"SPI","enable",2.756543194,0.000000001,,
"SPI","result",2.756705464,0.000848122,0xB8,0x8B
"SPI","disable",2.75757942,0.000000001,,
"SPI","enable",2.757663874,0.000000001,,
"SPI","result",2.757838997,0.000848116,0x74,0x87
"SPI","disable",2.758718192,0.000000001,,
"SPI","enable",2.855361977,0.000000001,,
"SPI","result",2.855549125,0.000848119,0xFE,0x47
"SPI","disable",2.856434387,0.000000001,,
"SPI","enable",2.856515023,0.000000001,,
"SPI","result",2.856682648,0.000848123,0xB8,0x01
"SPI","disable",2.857569346,0.000000001,,
"SPI","enable",2.857656657,0.000000001,,
"SPI","result",2.857816176,0.000848123,0xB8,0x8B
"SPI","disable",2.858692882,0.000000001,,
"SPI","enable",2.858777333,0.000000001,,
"SPI","result",2.858949712,0.000848115,0x74,0x87
"SPI","disable",2.859831644,0.000000001,,
"SPI","enable",2.956490666,0.000000001,,
"SPI","result",2.956659837,0.000848121,0xFE,0x47
"SPI","disable",2.957909655,0.000000001,,
"SPI","enable",2.957990304,0.000000001,,
"SPI","result",2.95813342,0.000848123,0xB8,0x01
"SPI","disable",2.959008435,0.000000001,,
"SPI","enable",2.959095749,0.000000001,,
"SPI","result",2.95926695,0.000848122,0xB8,0x8B
"SPI","disable",2.960150069,0.000000001,,
"SPI","enable",2.960234521,0.000000001,,
"SPI","result",2.960400479,0.000848118,0x74,0x87
"SPI","disable",2.961288837,0.000000001,,
"SPI","enable",3.00203481,0.000000001,,
"SPI","result",3.00222763,0.000848119,0xFE,0x47
"SPI","disable",3.003107213,0.000000001,,
"SPI","enable",3.003187858,0.000000001,,
"SPI","result",3.003361149,0.000848122,0xB8,0x01
"SPI","disable",3.004242175,0.000000001,,
"SPI","enable",3.004329491,0.000000001,,
"SPI","result",3.004494677,0.000848116,0xB8,0x8B
"SPI","disable",3.005383812,0.000000001,,
"SPI","enable",3.005468258,0.000000001,,
"SPI","result",3.005628204,0.00084811,0x74,0x87
"SPI","disable",3.006514012,0.000000001,,
"SPI","enable",3.006749853,0.000000001,,
"SPI","result",3.006875072,0.000848115,0xD2,0x47
"SPI","disable",3.007749901,0.000000001,,
"SPI","enable",3.00783055,0.000000001,,
"SPI","result",3.008008588,0.00084812,0xB8,0x2D
"SPI","disable",3.008884864,0.000000001,,
"SPI","enable",3.008972169,0.000000001,,
"SPI","result",3.009142107,0.000848123,0xB8,0x07
"SPI","disable",3.010026493,0.000000001,,
"SPI","enable",3.010110945,0.000000001,,
"SPI","result",3.010275631,0.000848122,0xF8,0x87
"SPI","disable",3.011165261,0.000000001,,
"SPI","enable",3.011286847,0.000000001,,
"SPI","result",3.01140916,0.000848113,0x92,0x47
"SPI","disable",3.013132408,0.000000001,,
"SPI","enable",3.013213042,0.000000001,,
"SPI","result",3.01333614,0.000848117,0xB8,0x6D
"SPI","disable",3.014213097,0.000000001,,
"SPI","enable",3.014300394,0.000000001,,
"SPI","result",3.014469663,0.000848116,0xB8,0x07
"SPI","disable",3.015354717,0.000000001,,
"SPI","enable",3.015439172,0.000000001,,
"SPI","result",3.015603181,0.000848121,0xF8,0x87
"SPI","disable",3.016493492,0.000000001,,
"SPI","enable",3.016612221,0.000000001,,
"SPI","result",3.016736711,0.000848113,0x82,0x47
"SPI","disable",3.017621787,0.000000001,,
"SPI","enable",3.017702434,0.000000001,,
"SPI","result",3.017870226,0.000848118,0xB8,0x7D
"SPI","disable",3.018756732,0.000000001,,
"SPI","enable",3.018844062,0.000000001,,
"SPI","result",3.019003747,0.000848119,0xB8,0x07
"SPI","disable",3.019880286,0.000000001,,
"SPI","enable",3.019964742,0.000000001,,
"SPI","result",3.020137266,0.000848123,0xF8,0x87
"SPI","disable",3.02101906,0.000000001,,
"SPI","enable",3.021157768,0.000000001,,
"SPI","result",3.021270799,0.000848117,0xEC,0x47
"SPI","disable",3.02215783,0.000000001,,
"SPI","enable",3.022238461,0.000000001,,
"SPI","result",3.02240432,0.000848123,0xB8,0x13
"SPI","disable",3.023292795,0.000000001,,
"SPI","enable",3.023380101,0.000000001,,
"SPI","result",3.023537848,0.000848122,0xB8,0x07
"SPI","disable",3.02441633,0.000000001,,
"SPI","enable",3.024500777,0.000000001,,
"SPI","result",3.024671374,0.000848124,0xF8,0x87
"SPI","disable",3.026259678,0.000000001,,
"SPI","enable",3.026380322,0.000000001,,
"SPI","result",3.026485024,0.000848117,0x2C,0x47
"SPI","disable",3.027362274,0.000000001,,
"SPI","enable",3.027442927,0.000000001,,
"SPI","result",3.027618537,0.000848132,0xB8,0xD3
"SPI","disable",3.02849723,0.000000001,,
"SPI","enable",3.028584547,0.000000001,,
"SPI","result",3.02875208,0.000848116,0xB8,0x07
"SPI","disable",3.029638854,0.000000001,,
"SPI","enable",3.029723321,0.000000001,,
"SPI","result",3.0298856,0.000848123,0xF8,0x87
"SPI","disable",3.030759545,0.000000001,,
"SPI","enable",3.127603146,0.000000001,,
"SPI","result",3.127709056,0.000848113,0xFE,0x47
"SPI","disable",3.128585098,0.000000001,,
"SPI","enable",3.128665743,0.000000001,,
"SPI","result",3.128842571,0.000848126,0xB8,0x01
"SPI","disable",3.129720063,0.000000001,,
"SPI","enable",3.129807372,0.000000001,,
"SPI","result",3.1299761,0.000848124,0xB8,0x8B
"SPI","disable",3.130861691,0.000000001,,
"SPI","enable",3.130946143,0.000000001,,
"SPI","result",3.131109637,0.000848115,0x74,0x87
"SPI","disable",3.131991897,0.000000001,,
"SPI","enable",3.228641382,0.000000001,,
"SPI","result",3.228819764,0.000848119,0xFE,0x47
"SPI","disable",3.229695698,0.000000001,,
"SPI","enable",3.229776332,0.000000001,,
"SPI","result",3.229953287,0.000848124,0xB8,0x01
"SPI","disable",3.230830662,0.000000001,,
"SPI","enable",3.230917967,0.000000001,,
"SPI","result",3.231086816,0.000848123,0xB8,0x8B
"SPI","disable",3.231963719,0.000000001,,
"SPI","enable",3.232048171,0.000000001,,
"SPI","result",3.232220348,0.000848117,0x74,0x87
"SPI","disable",3.233102494,0.000000001,,
"SPI","enable",3.329780546,0.000000001,,
"SPI","result",3.329930476,0.000848122,0xFE,0x47
"SPI","disable",3.330808212,0.000000001,,
"SPI","enable",3.330888838,0.000000001,,
"SPI","result",3.331064002,0.000848123,0xB8,0x01
"SPI","disable",3.33194317,0.000000001,,
"SPI","enable",3.332030474,0.000000001,,
"SPI","result",3.33219753,0.000848123,0xB8,0x8B
"SPI","disable",3.333084791,0.000000001,,
"SPI","enable",3.333169243,0.000000001,,
"SPI","result",3.333331064,0.000848117,0x74,0x87
"SPI","disable",3.334205473,0.000000001,,
"SPI","enable",3.430861632,0.000000001,,
"SPI","result",3.431041191,0.00084812,0xFE,0x47
"SPI","disable",3.431925454,0.000000001,,
"SPI","enable",3.432006106,0.000000001,,
"SPI","result",3.432174716,0.000848123,0xB8,0x01
"SPI","disable",3.433060433,0.000000001,,
"SPI","enable",3.433147736,0.000000001,,
"SPI","result",3.433308248,0.000848118,0xB8,0x8B
"SPI","disable",3.434183966,0.000000001,,
"SPI","enable",3.434268423,0.000000001,,
"SPI","result",3.434441775,0.000848118,0x74,0x87
"SPI","disable",3.435322736,0.000000001,,
"SPI","enable",3.531964613,0.000000001,,
"SPI","result",3.532151889,0.000848115,0xFE,0x47
"SPI","disable",3.533037029,0.000000001,,
"SPI","enable",3.533117662,0.000000001,,
"SPI","result",3.533285407,0.000848118,0xB8,0x01
"SPI","disable",3.53417198,0.000000001,,
"SPI","enable",3.535361878,0.000000001,,
"SPI","result",3.535552445,0.000848122,0xB8,0x8B
"SPI","disable",3.536434285,0.000000001,,
"SPI","enable",3.536518737,0.000000001,,
"SPI","result",3.536685973,0.000848114,0x74,0x87
"SPI","disable",3.537573052,0.000000001,,
"SPI","enable",3.634373944,0.000000001,,
"SPI","result",3.634509366,0.000848122,0xFE,0x47
"SPI","disable",3.635392074,0.000000001,,
"SPI","enable",3.635472719,0.000000001,,
"SPI","result",3.635642887,0.000848129,0xB8,0x01
"SPI","disable",3.636527034,0.000000001,,
"SPI","enable",3.636614344,0.000000001,,
"SPI","result",3.636776419,0.000848123,0xB8,0x8B
"SPI","disable",3.637660097,0.000000001,,
"SPI","enable",3.637744543,0.000000001,,
"SPI","result",3.637909952,0.000848118,0x74,0x87
"SPI","disable",3.638798868,0.000000001,,
"SPI","enable",3.735455982,0.000000001,,
"SPI","result",3.735620087,0.000848119,0xFE,0x47
"SPI","disable",3.736510296,0.000000001,,
"SPI","enable",3.736590935,0.000000001,,
"SPI","result",3.736753611,0.000848123,0xB8,0x01
"SPI","disable",3.73763669,0.000000001,,
"SPI","enable",3.737723996,0.000000001,,
"SPI","result",3.737887138,0.000848123,0xB8,0x8B
"SPI","disable",3.73877832,0.000000001,,
"SPI","enable",3.738862767,0.000000001,,
"SPI","result",3.739020672,0.000848116,0x74,0x87
"SPI","disable",3.739898987,0.000000001,,
"SPI","enable",3.836596097,0.000000001,,
"SPI","result",3.8367308,0.000848122,0xFE,0x47
"SPI","disable",3.837614224,0.000000001,,
"SPI","enable",3.837694868,0.000000001,,
"SPI","result",3.837864327,0.000848122,0xB8,0x01
"SPI","disable",3.839022452,0.000000001,,
"SPI","enable",3.839109762,0.000000001,,
"SPI","result",3.839224553,0.00084813,0xB8,0x8B
"SPI","disable",3.840109813,0.000000001,,
"SPI","enable",3.840194255,0.000000001,,
"SPI","result",3.840358092,0.000848118,0x74,0x87
"SPI","disable",3.841248573,0.000000001,,
"SPI","enable",3.93792338,0.000000001,,
"SPI","result",3.938068211,0.000848134,0xFE,0x47
"SPI","disable",3.938959546,0.000000001,,
"SPI","enable",3.939040244,0.000000001,,
"SPI","result",3.939201735,0.000848138,0xB8,0x01
"SPI","disable",3.940076399,0.000000001,,
"SPI","enable",3.940163769,0.000000001,,
"SPI","result",3.940335262,0.000848138,0xB8,0x8B
"SPI","disable",3.942144455,0.000000001,,
"SPI","enable",3.942228974,0.000000001,,
"SPI","result",3.942375618,0.000848133,0x74,0x87
"SPI","disable",3.943265127,0.000000001,,
"SPI","enable",3.991455573,0.000000001,,
"SPI","result",3.991570721,0.000848154,0xFE,0x47
"SPI","disable",3.992455513,0.000000001,,
"SPI","enable",3.992536242,0.000000001,,
"SPI","result",3.992704251,0.000848152,0xB8,0x01
"SPI","disable",3.99359045,0.000000001,,
"SPI","enable",3.993677852,0.000000001,,
"SPI","result",3.99383778,0.00084815,0xB8,0x8B
"SPI","disable",3.994723505,0.000000001,,
"SPI","enable",3.994808048,0.000000001,,
"SPI","result",3.994971307,0.000848149,0x74,0x87
"SPI","disable",3.995862261,0.000000001,,
"SPI","enable",3.996098197,0.000000001,,
"SPI","result",3.996218192,0.000848144,0x72,0x47
"SPI","disable",3.997098141,0.000000001,,
"SPI","enable",3.997178877,0.000000001,,
"SPI","result",3.997351714,0.000848151,0xB8,0x8D
"SPI","disable",3.998233098,0.000000001,,
"SPI","enable",3.998320487,0.000000001,,
"SPI","result",3.998485248,0.000848143,0xB8,0x07
"SPI","disable",3.999374705,0.000000001,,
"SPI","enable",3.999459247,0.000000001,,
"SPI","result",3.999618768,0.000848151,0xF8,0x87
"SPI","disable",4.000495376,0.000000001,,
"SPI","enable",4.093808741,0.000000001,,
"SPI","result",4.093928112,0.000848133,0xFE,0x47
"SPI","disable",4.094818247,0.000000001,,
"SPI","enable",4.094898943,0.000000001,,
"SPI","result",4.095061636,0.000848137,0xB8,0x01
"SPI","disable",4.095953211,0.000000001,,
"SPI","enable",4.096040562,0.000000001,,
"SPI","result",4.096195162,0.000848137,0xB8,0x8B
"SPI","disable",4.097076743,0.000000001,,
"SPI","enable",4.097161237,0.000000001,,
"SPI","result",4.097328687,0.000848141,0x74,0x87
"SPI","disable",4.098215506,0.000000001,,
"SPI","enable",4.098451394,0.000000001,,
"SPI","result",4.09857557,0.000848136,0xB2,0x47
"SPI","disable",4.099451384,0.000000001,,
"SPI","enable",4.099532075,0.000000001,,
"SPI","result",4.099709097,0.000848137,0xB8,0x4D
"SPI","disable",4.100586341,0.000000001,,
"SPI","enable",4.100673697,0.000000001,,
"SPI","result",4.100842618,0.000848142,0xB8,0x07
"SPI","disable",4.101727967,0.000000001,,
"SPI","enable",4.102914094,0.000000001,,
"SPI","result",4.103109681,0.000848136,0xF8,0x87
"SPI","disable",4.103986447,0.000000001,,
"SPI","enable",4.200838426,0.000000001,,
"SPI","result",4.200932913,0.000848124,0xFE,0x47
"SPI","disable",4.201820356,0.000000001,,
"SPI","enable",4.201901008,0.000000001,,
"SPI","result",4.202066432,0.000848133,0xB8,0x01
"SPI","disable",4.202955311,0.000000001,,
"SPI","enable",4.203042646,0.000000001,,
"SPI","result",4.203199962,0.000848131,0xB8,0x8B
"SPI","disable",4.204088367,0.000000001,,
"SPI","enable",4.204172837,0.000000001,,
"SPI","result",4.204333497,0.000848122,0x74,0x87
"SPI","disable",4.205209042,0.000000001,,
"SPI","enable",4.301906545,0.000000001,,
"SPI","result",4.302043606,0.000848145,0xFE,0x47
"SPI","disable",4.30292459,0.000000001,,
"SPI","enable",4.303005309,0.000000001,,
"SPI","result",4.303177128,0.000848149,0xB8,0x01
"SPI","disable",4.30405954,0.000000001,,
"SPI","enable",4.304146928,0.000000001,,
"SPI","result",4.304310654,0.000848151,0xB8,0x8B
"SPI","disable",4.305471561,0.000000001,,
"SPI","enable",4.305556101,0.000000001,,
"SPI","result",4.305670897,0.000848141,0x74,0x87
"SPI","disable",4.306556027,0.000000001,,
"SPI","enable",4.403288632,0.000000001,,
"SPI","result",4.403381036,0.000848132,0xFE,0x47
"SPI","disable",4.404270532,0.000000001,,
"SPI","enable",4.404351215,0.000000001,,
"SPI","result",4.404514558,0.000848138,0xB8,0x01
"SPI","disable",4.405405487,0.000000001,,
"SPI","enable",4.405492839,0.000000001,,
"SPI","result",4.405648085,0.000848138,0xB8,0x8B
"SPI","disable",4.40710602,0.000000001,,
"SPI","enable",4.407190512,0.000000001,,
"SPI","result",4.407348382,0.000848132,0x74,0x87
"SPI","disable",4.408226687,0.000000001,,
"SPI","enable",4.504914141,0.000000001,,
"SPI","result",4.505058527,0.000848119,0xFE,0x47
"SPI","disable",4.505950367,0.000000001,,
"SPI","enable",4.506031008,0.000000001,,
"SPI","result",4.50619205,0.000848124,0xB8,0x01
"SPI","disable",4.507067241,0.000000001,,
"SPI","enable",4.507154546,0.000000001,,
"SPI","result",4.507325578,0.000848124,0xB8,0x8B
"SPI","disable",4.50820886,0.000000001,,
"SPI","enable",4.508293321,0.000000001,,
"SPI","result",4.508459112,0.000848117,0x74,0x87
"SPI","disable",4.510196949,0.000000001,,
"SPI","enable",4.60601331,0.000000001,,
"SPI","result",4.606169242,0.000848118,0xFE,0x47
"SPI","disable",4.607049543,0.000000001,,
"SPI","enable",4.607130187,0.000000001,,
"SPI","result",4.607302764,0.000848123,0xB8,0x01
"SPI","disable",4.608194027,0.000000001,,
"SPI","enable",4.608281335,0.000000001,,
"SPI","result",4.608436292,0.000848122,0xB8,0x8B
"SPI","disable",4.60931756,0.000000001,,
"SPI","enable",4.609402018,0.000000001,,
"SPI","result",4.609569822,0.000848119,0x74,0x87
"SPI","disable",4.610456331,0.000000001,,
"SPI","enable",4.707102968,0.000000001,,
"SPI","result",4.707279817,0.000848121,0xFE,0x47
"SPI","disable",4.708157286,0.000000001,,
"SPI","enable",4.708237929,0.000000001,,
"SPI","result",4.708413343,0.000848123,0xB8,0x01
"SPI","disable",4.709292255,0.000000001,,
"SPI","enable",4.709379559,0.000000001,,
"SPI","result",4.709546867,0.000848127,0xB8,0x8B
"SPI","disable",4.710433871,0.000000001,,
"SPI","enable",4.710518335,0.000000001,,
"SPI","result",4.710680403,0.000848117,0x74,0x87
"SPI","disable",4.712402924,0.000000001,,
"SPI","enable",4.80823738,0.000000001,,
"SPI","result",4.808390533,0.000848122,0xFE,0x47
"SPI","disable",4.809851556,0.000000001,,
"SPI","enable",4.809932201,0.000000001,,
"SPI","result",4.810090822,0.000848124,0xB8,0x01
"SPI","disable",4.810968432,0.000000001,,
"SPI","enable",4.811055732,0.000000001,,
"SPI","result",4.81122435,0.000848124,0xB8,0x8B
"SPI","disable",4.812110056,0.000000001,,
"SPI","enable",4.812194508,0.000000001,,
"SPI","result",4.812357884,0.000848117,0x74,0x87
"SPI","disable",4.813240264,0.000000001,,
"SPI","enable",4.909935462,0.000000001,,
"SPI","result",4.910068004,0.000848128,0xFE,0x47
"SPI","disable",4.91095359,0.000000001,,
"SPI","enable",4.911034235,0.000000001,,
"SPI","result",4.911201537,0.000848122,0xB8,0x01
"SPI","disable",4.912088552,0.000000001,,
"SPI","enable",4.912175861,0.000000001,,
"SPI","result",4.912335063,0.000848123,0xB8,0x8B
"SPI","disable",4.913212096,0.000000001,,
"SPI","enable",4.913296541,0.000000001,,
"SPI","result",4.913468597,0.000848116,0x74,0x87
"SPI","disable",4.914350864,0.000000001,,
"SPI","enable",5.011002262,0.000000001,,
"SPI","result",5.011178723,0.000848123,0xFE,0x47
"SPI","disable",5.01205658,0.000000001,,
"SPI","enable",5.012137213,0.000000001,,
"SPI","result",5.012312251,0.000848123,0xB8,0x01
"SPI","disable",5.013191542,0.000000001,,
"SPI","enable",5.01327885,0.000000001,,
"SPI","result",5.013445777,0.000848124,0xB8,0x8B
"SPI","disable",5.014333167,0.000000001,,
"SPI","enable",5.014417622,0.000000001,,
"SPI","result",5.014579314,0.000848115,0x74,0x87
"SPI","disable",5.01545384,0.000000001,,
"SPI","enable",5.112117622,0.000000001,,
"SPI","result",5.112289443,0.00084812,0xFE,0x47
"SPI","disable",5.113171936,0.000000001,,
"SPI","enable",5.113252583,0.000000001,,
"SPI","result",5.113422971,0.00084812,0xB8,0x01
"SPI","disable",5.114334519,0.000000001,,
"SPI","enable",5.114421821,0.000000001,,
"SPI","result",5.114556497,0.000848122,0xB8,0x8B
"SPI","disable",5.115439958,0.000000001,,
"SPI","enable",5.115524409,0.000000001,,
"SPI","result",5.115690029,0.000848117,0x74,0x87
"SPI","disable",5.116578726,0.000000001,,
"SPI","enable",5.213215846,0.000000001,,
"SPI","result",5.213400017,0.000848121,0xFE,0x47
"SPI","disable",5.214288259,0.000000001,,
"SPI","enable",5.2143689,0.000000001,,
"SPI","result",5.214533541,0.000848125,0xB8,0x01
"SPI","disable",5.215423222,0.000000001,,
"SPI","enable",5.215510531,0.000000001,,
"SPI","result",5.215667067,0.000848126,0xB8,0x8B
"SPI","disable",5.216546754,0.000000001,,
"SPI","enable",5.216631208,0.000000001,,
"SPI","result",5.216800602,0.000848119,0x74,0x87
"SPI","disable",5.217685523,0.000000001,,
"SPI","enable",5.314373107,0.000000001,,
"SPI","result",5.314510738,0.000848121,0xFE,0x47
"SPI","disable",5.315391247,0.000000001,,
"SPI","enable",5.315471891,0.000000001,,
"SPI","result",5.31564426,0.000848126,0xB8,0x01
"SPI","disable",5.316526201,0.000000001,,
"SPI","enable",5.316613516,0.000000001,,
"SPI","result",5.316777788,0.000848126,0xB8,0x8B
"SPI","disable",5.317667832,0.000000001,,
"SPI","enable",5.317752283,0.000000001,,
"SPI","result",5.317911322,0.000848118,0x74,0x87
"SPI","disable",5.318788509,0.000000001,,
"SPI","enable",5.415450397,0.000000001,,
"SPI","result",5.415621457,0.000848121,0xFE,0x47
"SPI","disable",5.4165047,0.000000001,,
"SPI","enable",5.416585352,0.000000001,,
"SPI","result",5.416754983,0.000848123,0xB8,0x01
"SPI","disable",5.417639654,0.000000001,,
"SPI","enable",5.41772698,0.000000001,,
"SPI","result",5.417888508,0.000848125,0xB8,0x8B
"SPI","disable",5.418763203,0.000000001,,
"SPI","enable",5.418847657,0.000000001,,
"SPI","result",5.419022044,0.000848117,0x74,0x87
"SPI","disable",5.419901978,0.000000001,,
"SPI","enable",5.516566706,0.000000001,,
"SPI","result",5.516732175,0.000848121,0xFE,0x47
"SPI","disable",5.51762102,0.000000001,,
"SPI","enable",5.51770167,0.000000001,,
"SPI","result",5.517865694,0.000848129,0xB8,0x01
"SPI","disable",5.518755985,0.000000001,,
"SPI","enable",5.518843299,0.000000001,,
"SPI","result",5.518999226,0.000848125,0xB8,0x8B
"SPI","disable",5.519879516,0.000000001,,
"SPI","enable",5.519963973,0.000000001,,
"SPI","result",5.520132763,0.000848114,0x74,0x87
"SPI","disable",5.521018302,0.000000001,,
"SPI","enable",5.617655412,0.000000001,,
"SPI","result",5.617842893,0.000848124,0xFE,0x47
"SPI","disable",5.618727817,0.000000001,,
"SPI","enable",5.618808467,0.000000001,,
"SPI","result",5.618976419,0.000848126,0xB8,0x01
"SPI","disable",5.619862782,0.000000001,,
"SPI","enable",5.619950093,0.000000001,,
"SPI","result",5.620109947,0.000848125,0xB8,0x8B
"SPI","disable",5.62098632,0.000000001,,
"SPI","enable",5.62107077,0.000000001,,
"SPI","result",5.621243482,0.000848117,0x74,0x87
"SPI","disable",5.622125094,0.000000001,,
"SPI","enable",5.71879553,0.000000001,,
"SPI","result",5.718953477,0.000848122,0xFE,0x47
"SPI","disable",5.719831755,0.000000001,,
"SPI","enable",5.7199124,0.000000001,,
"SPI","result",5.720087004,0.000848123,0xB8,0x01
"SPI","disable",5.720966729,0.000000001,,
"SPI","enable",5.721054027,0.000000001,,
"SPI","result",5.721220533,0.000848122,0xB8,0x8B
"SPI","disable",5.722108353,0.000000001,,
"SPI","enable",5.722192797,0.000000001,,
"SPI","result",5.722354066,0.000848115,0x74,0x87
"SPI","disable",5.723244263,0.000000001,,
"SPI","enable",5.74769516,0.000000001,,
"SPI","result",5.747858443,0.00084812,0xFE,0x47
"SPI","disable",5.748749482,0.000000001,,
"SPI","enable",5.748830124,0.000000001,,
"SPI","result",5.748991967,0.000848123,0xB8,0x01
"SPI","disable",5.749866352,0.000000001,,
"SPI","enable",5.749953657,0.000000001,,
"SPI","result",5.750125493,0.000848126,0xB8,0x8B
"SPI","disable",5.751007973,0.000000001,,
"SPI","enable",5.75109243,0.000000001,,
"SPI","result",5.751259027,0.000848119,0x74,0x87
"SPI","disable",5.752146742,0.000000001,,
"SPI","enable",5.752382593,0.000000001,,
"SPI","result",5.752505901,0.000848125,0xF2,0x47
"SPI","disable",5.75339216,0.000000001,,
"SPI","enable",5.753472798,0.000000001,,
"SPI","result",5.753639428,0.000848124,0xB8,0x0D
"SPI","disable",5.754527122,0.000000001,,
"SPI","enable",5.754614422,0.000000001,,
"SPI","result",5.754772957,0.000848122,0xB8,0x07
"SPI","disable",5.755650661,0.000000001,,
"SPI","enable",5.755735112,0.000000001,,
"SPI","result",5.755906485,0.000848122,0xF8,0x87
"SPI","disable",5.75678943,0.000000001,,
"SPI","enable",5.756909116,0.000000001,,
"SPI","result",5.757040017,0.000848117,0xFE,0x47
"SPI","disable",5.757927247,0.000000001,,
"SPI","enable",5.758007892,0.000000001,,
"SPI","result",5.758173538,0.000848122,0xB8,0x01
"SPI","disable",5.759611596,0.000000001,,
"SPI","enable",5.759698912,0.000000001,,
"SPI","result",5.75987383,0.000848123,0xB8,0x6B
"SPI","disable",5.760753226,0.000000001,,
"SPI","enable",5.760837677,0.000000001,,
"SPI","result",5.761007353,0.000848127,0x94,0x87
"SPI","disable",5.761891995,0.000000001,,
"SPI","enable",5.762137362,0.000000001,,
"SPI","result",5.762254244,0.000848116,0xFE,0x47
"SPI","disable",5.763137412,0.000000001,,
"SPI","enable",5.763218056,0.000000001,,
"SPI","result",5.763387767,0.00084812,0xB8,0x01
"SPI","disable",5.764272375,0.000000001,,
"SPI","enable",5.76435968,0.000000001,,
"SPI","result",5.764521292,0.000848122,0xB8,0x6B
"SPI","disable",5.765405427,0.000000001,,
"SPI","enable",5.765489883,0.000000001,,
"SPI","result",5.765654818,0.000848123,0x94,0x87
"SPI","disable",5.766544202,0.000000001,,
"SPI","enable",5.766789569,0.000000001,,
"SPI","result",5.766901705,0.000848117,0xFE,0x47
"SPI","disable",5.767789609,0.000000001,,
"SPI","enable",5.767870259,0.000000001,,
"SPI","result",5.768035222,0.000848128,0xB8,0x01
"SPI","disable",5.768924579,0.000000001,,
"SPI","enable",5.769011887,0.000000001,,
"SPI","result",5.769168752,0.000848124,0xB8,0x6B
"SPI","disable",5.770048112,0.000000001,,
"SPI","enable",5.770132567,0.000000001,,
"SPI","result",5.770302281,0.000848122,0x94,0x87
"SPI","disable",5.771480135,0.000000001,,
"SPI","enable",5.771725511,0.000000001,,
"SPI","result",5.771889226,0.000848116,0xFE,0x47
"SPI","disable",5.772779823,0.000000001,,
"SPI","enable",5.772860469,0.000000001,,
"SPI","result",5.773022747,0.000848123,0xB8,0x01
"SPI","disable",5.773896705,0.000000001,,
"SPI","enable",5.773984006,0.000000001,,
"SPI","result",5.774156272,0.000848125,0xB8,0x6B
"SPI","disable",5.775038327,0.000000001,,
"SPI","enable",5.775122782,0.000000001,,
"SPI","result",5.775289799,0.000848126,0x94,0x87
"SPI","disable",5.776177094,0.000000001,,
"SPI","enable",5.776422467,0.000000001,,
"SPI","result",5.776536687,0.000848118,0xFE,0x47
"SPI","disable",5.777413944,0.000000001,,
"SPI","enable",5.777494585,0.000000001,,
"SPI","result",5.777670208,0.000848123,0xB8,0x01
"SPI","disable",5.778548892,0.000000001,,
"SPI","enable",5.778636209,0.000000001,,
"SPI","result",5.778803737,0.000848123,0xB8,0x6B
"SPI","disable",5.779690532,0.000000001,,
"SPI","enable",5.779774981,0.000000001,,
"SPI","result",5.779937264,0.000848123,0x94,0x87
"SPI","disable",5.78081121,0.000000001,,
"SPI","enable",5.781056576,0.000000001,,
"SPI","result",5.78118415,0.000848117,0xFE,0x47
"SPI","disable",5.783127789,0.000000001,,
"SPI","enable",5.783208424,0.000000001,,
"SPI","result",5.783337848,0.000848121,0xB8,0x01
"SPI","disable",5.784226565,0.000000001,,
"SPI","enable",5.784313881,0.000000001,,
"SPI","result",5.784471369,0.000848128,0xB8,0x6B
"SPI","disable",5.785350107,0.000000001,,
"SPI","enable",5.785434559,0.000000001,,
"SPI","result",5.785604902,0.000848122,0x94,0x87
"SPI","disable",5.786488878,0.000000001,,
"SPI","enable",5.786734243,0.000000001,,
"SPI","result",5.786851788,0.000848113,0xFE,0x47
"SPI","disable",5.787734292,0.000000001,,
"SPI","enable",5.787814931,0.000000001,,
"SPI","result",5.787985302,0.000848124,0xB8,0x01
"SPI","disable",5.788860677,0.000000001,,
"SPI","enable",5.78894799,0.000000001,,
"SPI","result",5.789118834,0.000848117,0xB8,0x6B
"SPI","disable",5.790002303,0.000000001,,
"SPI","enable",5.790086754,0.000000001,,
"SPI","result",5.790252354,0.000848122,0x94,0x87
"SPI","disable",5.791141083,0.000000001,,
"SPI","enable",5.791386448,0.000000001,,
"SPI","result",5.791499237,0.000848116,0xFE,0x47
"SPI","disable",5.792386492,0.000000001,,
"SPI","enable",5.792467134,0.000000001,,
"SPI","result",5.792632754,0.000848123,0xB8,0x01
"SPI","disable",5.793521445,0.000000001,,
"SPI","enable",5.7947561,0.000000001,,
"SPI","result",5.794899803,0.000848124,0xB8,0x6B
"SPI","disable",5.795774232,0.000000001,,
"SPI","enable",5.795858686,0.000000001,,
"SPI","result",5.796033332,0.000848121,0x94,0x87
"SPI","disable",5.796913002,0.000000001,,
"SPI","enable",5.797158379,0.000000001,,
"SPI","result",5.797280213,0.000848116,0xFE,0x47
"SPI","disable",5.798158403,0.000000001,,
"SPI","enable",5.798239064,0.000000001,,
"SPI","result",5.798413731,0.000848122,0xB8,0x01
"SPI","disable",5.799293386,0.000000001,,
"SPI","enable",5.799380691,0.000000001,,
"SPI","result",5.799547255,0.000848123,0xB8,0x6B
"SPI","disable",5.80042644,0.000000001,,
"SPI","enable",5.800510894,0.000000001,,
"SPI","result",5.800680782,0.00084812,0x94,0x87
"SPI","disable",5.80156521,0.000000001,,
"SPI","enable",5.801810572,0.000000001,,
"SPI","result",5.801927662,0.000848117,0xFE,0x47
"SPI","disable",5.802810616,0.000000001,,
"SPI","enable",5.802891264,0.000000001,,
"SPI","result",5.803061183,0.00084812,0xB8,0x01
"SPI","disable",5.803945587,0.000000001,,
"SPI","enable",5.804032892,0.000000001,,
"SPI","result",5.804194707,0.000848122,0xB8,0x6B
"SPI","disable",5.805069121,0.000000001,,
"SPI","enable",5.805153572,0.000000001,,
"SPI","result",5.805328233,0.00084812,0x94,0x87
"SPI","disable",5.806325956,0.000000001,,
"SPI","enable",5.806571322,0.000000001,,
"SPI","result",5.806688468,0.000848113,0xFE,0x47
"SPI","disable",5.807571372,0.000000001,,
"SPI","enable",5.807652014,0.000000001,,
"SPI","result",5.807821981,0.000848125,0xB8,0x01
"SPI","disable",5.808706334,0.000000001,,
"SPI","enable",5.808793639,0.000000001,,
"SPI","result",5.808955507,0.000848123,0xB8,0x6B
"SPI","disable",5.809829863,0.000000001,,
"SPI","enable",5.80991432,0.000000001,,
"SPI","result",5.810089027,0.000848128,0x94,0x87
"SPI","disable",5.810968633,0.000000001,,
"SPI","enable",5.811214006,0.000000001,,
"SPI","result",5.811335916,0.000848116,0xFE,0x47
"SPI","disable",5.812223573,0.000000001,,
"SPI","enable",5.812304212,0.000000001,,
"SPI","result",5.812469436,0.000848119,0xB8,0x01
"SPI","disable",5.813358532,0.000000001,,
"SPI","enable",5.813445844,0.000000001,,
"SPI","result",5.813602962,0.000848117,0xB8,0x6B
"SPI","disable",5.814482068,0.000000001,,
"SPI","enable",5.814566524,0.000000001,,
"SPI","result",5.814736482,0.000848123,0x94,0x87
"SPI","disable",5.815620847,0.000000001,,
"SPI","enable",5.815866206,0.000000001,,
"SPI","result",5.815983365,0.000848116,0xFE,0x47
"SPI","disable",5.817661276,0.000000001,,
"SPI","enable",5.817741943,0.000000001,,
"SPI","result",5.817910352,0.00084812,0xB8,0x01
"SPI","disable",5.81879626,0.000000001,,
"SPI","enable",5.81888357,0.000000001,,
"SPI","result",5.819043872,0.000848125,0xB8,0x6B
"SPI","disable",5.819919797,0.000000001,,
"SPI","enable",5.820004247,0.000000001,,
"SPI","result",5.820177399,0.00084812,0x94,0x87
"SPI","disable",5.821058573,0.000000001,,
"SPI","enable",5.821303931,0.000000001,,
"SPI","result",5.821424282,0.000848115,0xFE,0x47
"SPI","disable",5.822303986,0.000000001,,
"SPI","enable",5.822384621,0.000000001,,
"SPI","result",5.822557802,0.000848119,0xB8,0x01
"SPI","disable",5.823448465,0.000000001,,
"SPI","enable",5.823535772,0.000000001,,
"SPI","result",5.823691326,0.00084812,0xB8,0x6B
"SPI","disable",5.824572003,0.000000001,,
"SPI","enable",5.824656448,0.000000001,,
"SPI","result",5.824824847,0.000848123,0x94,0x87
"SPI","disable",5.825710765,0.000000001,,
"SPI","enable",5.825956134,0.000000001,,
"SPI","result",5.826071732,0.000848114,0xFE,0x47
"SPI","disable",5.826956179,0.000000001,,
"SPI","enable",5.827036826,0.000000001,,
"SPI","result",5.827205247,0.000848122,0xB8,0x01
"SPI","disable",5.828511992,0.000000001,,
"SPI","enable",5.828599291,0.000000001,,
"SPI","result",5.828792189,0.000848114,0xB8,0x6B
"SPI","disable",5.829671712,0.000000001,,
"SPI","enable",5.829756164,0.000000001,,
"SPI","result",5.829925707,0.00084812,0x94,0x87
"SPI","disable",5.830810489,0.000000001,,
"SPI","enable",5.831055847,0.000000001,,
"SPI","result",5.831172591,0.000848114,0xFE,0x47
"SPI","disable",5.832055899,0.000000001,,
"SPI","enable",5.832136539,0.000000001,,
"SPI","result",5.832306107,0.000848123,0xB8,0x01
"SPI","disable",5.833190846,0.000000001,,
"SPI","enable",5.833278166,0.000000001,,
"SPI","result",5.833439626,0.000848127,0xB8,0x8B
"SPI","disable",5.83432391,0.000000001,,
"SPI","enable",5.834408367,0.000000001,,
"SPI","result",5.834573162,0.000848116,0x74,0x87
"SPI","disable",5.835462681,0.000000001,,
"SPI","enable",5.835701387,0.000000001,,
"SPI","result",5.835820039,0.000848115,0x7A,0x47
"SPI","disable",5.836701428,0.000000001,,
"SPI","enable",5.836782076,0.000000001,,
"SPI","result",5.836953553,0.000848126,0xB8,0x85
"SPI","disable",5.837836395,0.000000001,,
"SPI","enable",5.837923699,0.000000001,,
"SPI","result",5.838313814,0.000848094,0xB8,0x00
"SPI","disable",5.839478858,0.000000001,,
"SPI","enable",5.839611864,0.000000001,,
"SPI","result",5.83978738,0.000848111,0xFF,0x00
"SPI","disable",5.840666172,0.000000001,,
"SPI","enable",5.840812529,0.000000001,,
"SPI","result",5.841034255,0.000848112,0xFF,0x00
"SPI","disable",5.841921117,0.000000001,,
"SPI","enable",5.842067461,0.000000001,,
"SPI","result",5.842281132,0.000848113,0xFF,0x00
"SPI","disable",5.843157962,0.000000001,,
"SPI","enable",5.843304294,0.000000001,,
"SPI","result",5.843528004,0.000848117,0xFF,0x00
"SPI","disable",5.844412871,0.000000001,,
"SPI","enable",5.84460493,0.000000001,,
"SPI","result",5.844774887,0.000848112,0xFF,0x00
"SPI","disable",5.845659252,0.000000001,,
"SPI","enable",5.845805593,0.000000001,,
"SPI","result",5.846021767,0.000848109,0xFF,0x00
"SPI","disable",5.846896099,0.000000001,,
"SPI","enable",5.847042434,0.000000001,,
"SPI","result",5.847268641,0.000848113,0xFF,0x00
"SPI","disable",5.848151028,0.000000001,,
"SPI","enable",5.848299271,0.000000001,,
"SPI","result",5.84851552,0.000848112,0xFF,0xC0
"SPI","disable",5.849389768,0.000000001,,
"SPI","enable",5.850631085,0.000000001,,
"SPI","result",5.850782557,0.000848124,0x3F,0x1F
"SPI","disable",5.851667307,0.000000001,,
"SPI","enable",5.851818417,0.000000001,,
"SPI","result",5.852029446,0.000848112,0xE0,0x00
"SPI","disable",5.852908912,0.000000001,,
"SPI","enable",5.853055257,0.000000001,,
"SPI","result",5.853276327,0.000848109,0xFF,0xF0
"SPI","disable",5.854163852,0.000000001,,
"SPI","enable",5.854310187,0.000000001,,
"SPI","result",5.854523194,0.000848118,0x0F,0xFF
"SPI","disable",5.85540069,0.000000001,,
"SPI","enable",5.855592737,0.000000001,,
"SPI","result",5.855770076,0.000848114,0x00,0x07
"SPI","disable",5.856647044,0.000000001,,
"SPI","enable",5.856793397,0.000000001,,
"SPI","result",5.857016956,0.000848111,0xF8,0x00
"SPI","disable",5.857901987,0.000000001,,
"SPI","enable",5.85804833,0.000000001,,
"SPI","result",5.858263831,0.000848112,0xFF,0xFC
"SPI","disable",5.859138827,0.000000001,,
"SPI","enable",5.859287076,0.000000001,,
"SPI","result",5.859510702,0.000848119,0x03,0x03
"SPI","disable",5.861224032,0.000000001,,
"SPI","enable",5.861372284,0.000000001,,
"SPI","result",5.861551054,0.00084811,0xFC,0x00
"SPI","disable",5.862426593,0.000000001,,
"SPI","enable",5.862572939,0.000000001,,
"SPI","result",5.862797933,0.000848109,0xFF,0x00
"SPI","disable",5.863681534,0.000000001,,
"SPI","enable",5.863827875,0.000000001,,
"SPI","result",5.864044807,0.000848113,0xFF,0x00
"SPI","disable",5.864936467,0.000000001,,
"SPI","enable",5.86508281,0.000000001,,
"SPI","result",5.865291688,0.000848108,0xFF,0x00
"SPI","disable",5.866182827,0.000000001,,
"SPI","enable",5.866329176,0.000000001,,
"SPI","result",5.866538562,0.000848112,0xFF,0x00
"SPI","disable",5.867419665,0.000000001,,
"SPI","enable",5.867566017,0.000000001,,
"SPI","result",5.867785438,0.000848112,0xFF,0x00
"SPI","disable",5.868674603,0.000000001,,
"SPI","enable",5.868820947,0.000000001,,
"SPI","result",5.869032317,0.000848111,0xFF,0x00
"SPI","disable",5.869911443,0.000000001,,
"SPI","enable",5.870059689,0.000000001,,
"SPI","result",5.870279197,0.000848108,0xFF,0x00
"SPI","disable",5.871945239,0.000000001,,
"SPI","enable",5.872091573,0.000000001,,
"SPI","result",5.872206171,0.000848127,0xFF,0x87
"SPI","disable",5.873091624,0.000000001,,
"SPI","enable",5.873236058,0.000000001,,
"SPI","result",5.87333971,0.000848113,0x76,0x47
"SPI","disable",5.874218016,0.000000001,,
"SPI","enable",5.87429866,0.000000001,,
"SPI","result",5.87447322,0.000848127,0xB8,0x89
"SPI","disable",5.875352974,0.000000001,,
"SPI","enable",5.875476467,0.000000001,,
"SPI","result",5.875606776,0.000848097,0xB8,0xC0
"SPI","disable",5.876494606,0.000000001,,
"SPI","enable",5.876579055,0.000000001,,
"SPI","result",5.876740269,0.000848127,0x3F,0x87
"SPI","disable",5.877624805,0.000000001,,
"SPI","enable",5.877771147,0.000000001,,
"SPI","result",5.877873802,0.00084812,0x42,0x47
"SPI","disable",5.878753106,0.000000001,,
"SPI","enable",5.878833748,0.000000001,,
"SPI","result",5.879007313,0.000848133,0xB8,0xBD
"SPI","disable",5.879888072,0.000000001,,
"SPI","enable",5.879975371,0.000000001,,
"SPI","result",5.880140857,0.000848114,0xB8,0x07
"SPI","disable",5.8810297,0.000000001,,
"SPI","enable",5.881114147,0.000000001,,
"SPI","result",5.881274375,0.000848121,0xF8,0x87
"SPI","disable",5.882544562,0.000000001,,
"SPI","enable",5.882698523,0.000000001,,
"SPI","result",5.882861316,0.000848115,0xFE,0x47
"SPI","disable",5.883752839,0.000000001,,
"SPI","enable",5.883833482,0.000000001,,
"SPI","result",5.883994832,0.000848123,0xB8,0x01
"SPI","disable",5.884869709,0.000000001,,
"SPI","enable",5.884957024,0.000000001,,
"SPI","result",5.885128357,0.000848124,0xB8,0x8B
"SPI","disable",5.886011341,0.000000001,,
"SPI","enable",5.886095793,0.000000001,,
"SPI","result",5.886261889,0.000848116,0x74,0x87
"SPI","disable",5.887150107,0.000000001,,
"SPI","enable",5.887385953,0.000000001,,
"SPI","result",5.887508765,0.000848117,0x32,0x47
"SPI","disable",5.888395519,0.000000001,,
"SPI","enable",5.888476167,0.000000001,,
"SPI","result",5.88864228,0.000848127,0xB8,0xCD
"SPI","disable",5.889530491,0.000000001,,
"SPI","enable",5.889617795,0.000000001,,
"SPI","result",5.889775817,0.000848114,0xB8,0x07
"SPI","disable",5.890654018,0.000000001,,
"SPI","enable",5.890738477,0.000000001,,
"SPI","result",5.890909332,0.000848124,0xF8,0x87
"SPI","disable",5.891792797,0.000000001,,
"SPI","enable",5.891968652,0.000000001,,
"SPI","result",5.892156217,0.000848115,0x92,0x47
"SPI","disable",5.893257199,0.000000001,,
"SPI","enable",5.893337847,0.000000001,,
"SPI","result",5.893516441,0.000848122,0xB8,0x6D
"SPI","disable",5.894392162,0.000000001,,
"SPI","enable",5.894479467,0.000000001,,
"SPI","result",5.894649962,0.000848125,0xB8,0x07
"SPI","disable",5.89553379,0.000000001,,
"SPI","enable",5.895618242,0.000000001,,
"SPI","result",5.895783492,0.000848119,0xF8,0x87
"SPI","disable",5.896672565,0.000000001,,
"SPI","enable",5.896826517,0.000000001,,
"SPI","result",5.896917022,0.000848114,0x42,0x47
"SPI","disable",5.897808477,0.000000001,,
"SPI","enable",5.897934827,0.000000001,,
"SPI","result",5.898050536,0.000848126,0xB8,0xBD
"SPI","disable",5.898934871,0.000000001,,
"SPI","enable",5.899022177,0.000000001,,
"SPI","result",5.899184071,0.000848114,0xB8,0x07
"SPI","disable",5.900058402,0.000000001,,
"SPI","enable",5.900142861,0.000000001,,
