name,type,start_time,duration,"mosi","miso"
"SPI","enable",0.0564088,0.00000016,,
"SPI","result",0.05656736,0.0008488,0x47,0xFE
"SPI","disable",0.0574416,0.00000016,,
"SPI","enable",0.05752544,0.00000016,,
"SPI","result",0.05770096,0.00084864,0x01,0xB8
"SPI","disable",0.05857648,0.00000016,,
"SPI","enable",0.05866704,0.00000016,,
"SPI","result",0.05883456,0.00084864,0x8B,0xB8
"SPI","disable",0.05971792,0.00000016,,
"SPI","enable",0.05980576,0.00000016,,
"SPI","result",0.059968,0.0008488,0x87,0x74
"SPI","disable",0.06085664,0.00000016,,
"SPI","enable",0.15752064,0.00000016,,
"SPI","result",0.15768144,0.00084864,0x47,0xFE
"SPI","disable",0.15857152,0.00000016,,
"SPI","enable",0.15865552,0.00000016,,
"SPI","result",0.15881488,0.0008488,0x01,0xB8
"SPI","disable",0.15968832,0.00000016,,
"SPI","enable",0.15977888,0.00000016,,
"SPI","result",0.15994848,0.0008488,0x8B,0xB8
"SPI","disable",0.16082992,0.00000016,,
"SPI","enable",0.1609176,0.00000016,,
"SPI","result",0.16108208,0.00084864,0x87,0x74
"SPI","disable",0.16196848,0.00000016,,
"SPI","enable",0.25863248,0.00000016,,
"SPI","result",0.25879536,0.0008488,0x47,0xFE
"SPI","disable",0.25968352,0.00000016,,
"SPI","enable",0.25976736,0.00000016,,
"SPI","result",0.25992896,0.00084864,0x01,0xB8
"SPI","disable",0.26081824,0.00000016,,
"SPI","enable",0.2609088,0.00000016,,
"SPI","result",0.26117584,0.0008488,0x8B,0xB8
"SPI","disable",0.26205024,0.00000016,,
"SPI","enable",0.26213792,0.00000016,,
"SPI","result",0.26230944,0.00084864,0x87,0x74
"SPI","disable",0.26318896,0.00000016,,
"SPI","enable",0.35985296,0.00000016,,
"SPI","result",0.36002256,0.0008488,0x47,0xFE
"SPI","disable",0.36090384,0.00000016,,
"SPI","enable",0.36098784,0.00000016,,
"SPI","result",0.36115616,0.00084864,0x01,0xB8
"SPI","disable",0.36203872,0.00000016,,
"SPI","enable",0.36212928,0.00000016,,
"SPI","result",0.36228976,0.00084864,0x8B,0xB8
"SPI","disable",0.36318016,0.00000016,,
"SPI","enable",0.363268,0.00000016,,
"SPI","result",0.3634232,0.0008488,0x87,0x74
"SPI","disable",0.3643008,0.00000016,,
"SPI","enable",0.4609648,0.00000016,,
"SPI","result",0.46113664,0.00084864,0x47,0xFE
"SPI","disable",0.46201568,0.00000016,,
"SPI","enable",0.46209968,0.00000016,,
"SPI","result",0.46227008,0.0008488,0x01,0xB8
"SPI","disable",0.46315056,0.00000016,,
"SPI","enable",0.46324112,0.00000016,,
"SPI","result",0.46340368,0.0008488,0x8B,0xB8
"SPI","disable",0.46429216,0.00000016,,
"SPI","enable",0.46437984,0.00000016,,
"SPI","result",0.46453728,0.00084864,0x87,0x74
"SPI","disable",0.46541264,0.00000016,,
"SPI","enable",0.5620928,0.00000016,,
"SPI","result",0.56225056,0.0008488,0x47,0xFE
"SPI","disable",0.56312576,0.00000016,,
"SPI","enable",0.5632096,0.00000016,,
"SPI","result",0.56338416,0.00084864,0x01,0xB8
"SPI","disable",0.56426064,0.00000016,,
"SPI","enable",0.5643512,0.00000016,,
"SPI","result",0.56451776,0.00084864,0x8B,0xB8
"SPI","disable",0.56540208,0.00000016,,
"SPI","enable",0.56548976,0.00000016,,
"SPI","result",0.5656512,0.0008488,0x87,0x74
"SPI","disable",0.5665408,0.00000016,,
"SPI","enable",0.66317232,0.00000016,,
"SPI","result",0.66336464,0.00084864,0x47,0xFE
"SPI","disable",0.66424144,0.00000016,,
"SPI","enable",0.66432528,0.00000016,,
"SPI","result",0.66449808,0.0008488,0x01,0xB8
"SPI","disable",0.66572368,0.00000016,,
"SPI","enable",0.66581424,0.00000016,,
"SPI","result",0.66597184,0.00084864,0x8B,0xB8
"SPI","disable",0.6668472,0.00000016,,
"SPI","enable",0.66693488,0.00000016,,
"SPI","result",0.66710528,0.0008488,0x87,0x74
"SPI","disable",0.66798592,0.00000016,,
"SPI","enable",0.76465072,0.00000016,,
"SPI","result",0.76481872,0.00084864,0x47,0xFE
"SPI","disable",0.76570176,0.00000016,,
"SPI","enable",0.7657856,0.00000016,,
"SPI","result",0.76595216,0.0008488,0x01,0xB8
"SPI","disable",0.76705648,0.00000016,,
"SPI","enable",0.76714704,0.00000016,,
"SPI","result",0.76731248,0.0008488,0x8B,0xB8
"SPI","disable",0.76819808,0.00000016,,
"SPI","enable",0.76828576,0.00000016,,
"SPI","result",0.76844608,0.00084864,0x87,0x74
"SPI","disable",0.76933664,0.00000016,,
"SPI","enable",0.82633488,0.00000016,,
"SPI","result",0.82648464,0.00084864,0x47,0xFE
"SPI","disable",0.82736768,0.00000016,,
"SPI","enable",0.82745168,0.00000016,,
"SPI","result",0.82761808,0.0008488,0x01,0xB8
"SPI","disable",0.82850256,0.00000016,,
"SPI","enable",0.82859312,0.00000016,,
"SPI","result",0.82875168,0.0008488,0x8B,0xB8
"SPI","disable",0.82963552,0.00000016,,
"SPI","enable",0.82972336,0.00000016,,
"SPI","result",0.82988528,0.00084864,0x87,0x74
"SPI","disable",0.83077424,0.00000016,,
"SPI","enable",0.83101328,0.00000016,,
"SPI","result",0.83113216,0.0008488,0x47,0xD2
"SPI","disable",0.83201008,0.00000016,,
"SPI","enable",0.83209392,0.00000016,,
"SPI","result",0.83226576,0.0008488,0x2D,0xB8
"SPI","disable",0.8331448,0.00000016,,
"SPI","enable",0.83323552,0.00000016,,
"SPI","result",0.83339936,0.00084864,0x07,0xB8
"SPI","disable",0.83501856,0.00000016,,
"SPI","enable",0.83510624,0.00000016,,
"SPI","result",0.83521296,0.0008488,0x87,0xF8
"SPI","disable",0.83610288,0.00000016,,
"SPI","enable",0.83622784,0.00000016,,
"SPI","result",0.83634656,0.0008488,0x47,0x12
"SPI","disable",0.83722448,0.00000016,,
"SPI","enable",0.83730832,0.00000016,,
"SPI","result",0.83748016,0.00084864,0xED,0xB8
"SPI","disable",0.8383688,0.00000016,,
"SPI","enable",0.83845936,0.00000016,,
"SPI","result",0.83861376,0.00084864,0x07,0xB8
"SPI","disable",0.83949232,0.00000016,,
"SPI","enable",0.83958,0.00000016,,
"SPI","result",0.8397472,0.0008488,0x87,0xF8
"SPI","disable",0.84063088,0.00000016,,
"SPI","enable",0.84075296,0.00000016,,
"SPI","result",0.8408808,0.0008488,0x47,0x82
"SPI","disable",0.84176768,0.00000016,,
"SPI","enable",0.84185168,0.00000016,,
"SPI","result",0.8420144,0.0008488,0x7D,0xB8
"SPI","disable",0.84359088,0.00000016,,
"SPI","enable",0.84368144,0.00000016,,
"SPI","result",0.84382816,0.00084864,0x07,0xB8
"SPI","disable",0.8447144,0.00000016,,
"SPI","enable",0.84480208,0.00000016,,
"SPI","result",0.8449616,0.0008488,0x87,0xF8
"SPI","disable",0.84585296,0.00000016,,
"SPI","enable",0.84597696,0.00000016,,
"SPI","result",0.8460952,0.0008488,0x47,0xEC
"SPI","disable",0.84698304,0.00000016,,
"SPI","enable",0.84706704,0.00000016,,
"SPI","result",0.8472288,0.0008488,0x13,0xB8
"SPI","disable",0.84811792,0.00000016,,
"SPI","enable",0.84820848,0.00000016,,
"SPI","result",0.8483624,0.00084864,0x07,0xB8
"SPI","disable",0.84924144,0.00000016,,
"SPI","enable",0.84932912,0.00000016,,
"SPI","result",0.849496,0.00084864,0x87,0xF8
"SPI","disable",0.85038,0.00000016,,
"SPI","enable",0.850504,0.00000016,,
"SPI","result",0.85062944,0.0008488,0x47,0x2C
"SPI","disable",0.85211184,0.00000016,,
"SPI","enable",0.85219584,0.00000016,,
"SPI","result",0.85232976,0.0008488,0xD3,0xB8
"SPI","disable",0.85321056,0.00000016,,
"SPI","enable",0.85330112,0.00000016,,
"SPI","result",0.85346336,0.0008488,0x07,0xB8
"SPI","disable",0.854352,0.00000016,,
"SPI","enable",0.85443984,0.00000016,,
"SPI","result",0.85459696,0.00084864,0x87,0xF8
"SPI","disable",0.85548224,0.00000016,,
"SPI","enable",0.95215648,0.00000016,,
"SPI","result",0.95231008,0.0008488,0x47,0xFE
"SPI","disable",0.95318928,0.00000016,,
"SPI","enable",0.95327328,0.00000016,,
"SPI","result",0.95344368,0.0008488,0x01,0xB8
"SPI","disable",0.95432416,0.00000016,,
"SPI","enable",0.95441472,0.00000016,,
"SPI","result",0.95457728,0.00084864,0x8B,0xB8
"SPI","disable",0.95585232,0.00000016,,
"SPI","enable",0.95594,0.00000016,,
"SPI","result",0.95605088,0.0008488,0x87,0x74
"SPI","disable",0.95693664,0.00000016,,
"SPI","enable",1.0536664,0.00000016,,
"SPI","result",1.05376416,0.0008488,0x47,0xFE
"SPI","disable",1.05464496,0.00000016,,
"SPI","enable",1.0547288,0.00000016,,
"SPI","result",1.05489776,0.0008488,0x01,0xB8
"SPI","disable",1.05577984,0.00000016,,
"SPI","enable",1.0558704,0.00000016,,
"SPI","result",1.05603136,0.00084864,0x8B,0xB8
"SPI","disable",1.058,0.00000016,,
"SPI","enable",1.05808768,0.00000016,,
"SPI","result",1.05818512,0.00084864,0x87,0x74
"SPI","disable",1.05906624,0.00000016,,
"SPI","enable",1.15577888,0.00000016,,
"SPI","result",1.1558984,0.0008488,0x47,0xFE
"SPI","disable",1.15677552,0.00000016,,
"SPI","enable",1.15685936,0.00000016,,
"SPI","result",1.157032,0.00084864,0x01,0xB8
"SPI","disable",1.1579104,0.00000016,,
"SPI","enable",1.15800096,0.00000016,,
"SPI","result",1.1581656,0.00084864,0x8B,0xB8
"SPI","disable",1.16013056,0.00000016,,
"SPI","enable",1.16021824,0.00000016,,
"SPI","result",1.16031936,0.00084864,0x87,0x74
"SPI","disable",1.1611968,0.00000016,,
"SPI","enable",1.2579208,0.00000016,,
"SPI","result",1.25803264,0.00084864,0x47,0xFE
"SPI","disable",1.25891744,0.00000016,,
"SPI","enable",1.25900144,0.00000016,,
"SPI","result",1.25916624,0.00084864,0x01,0xB8
"SPI","disable",1.26005232,0.00000016,,
"SPI","enable",1.26014288,0.00000016,,
"SPI","result",1.26029968,0.0008488,0x8B,0xB8
"SPI","disable",1.26118528,0.00000016,,
"SPI","enable",1.26127312,0.00000016,,
"SPI","result",1.26143328,0.0008488,0x87,0x74
"SPI","disable",1.262324,0.00000016,,
"SPI","enable",1.36010192,0.00000016,,
"SPI","result",1.36028016,0.0008488,0x47,0xFE
"SPI","disable",1.36117088,0.00000016,,
"SPI","enable",1.36125488,0.00000016,,
"SPI","result",1.36141376,0.00084864,0x01,0xB8
"SPI","disable",1.36228768,0.00000016,,
"SPI","enable",1.36237824,0.00000016,,
"SPI","result",1.36254736,0.00084864,0x8B,0xB8
"SPI","disable",1.36342064,0.00000016,,
"SPI","enable",1.36350832,0.00000016,,
"SPI","result",1.3636808,0.0008488,0x87,0x74
"SPI","disable",1.36455936,0.00000016,,
"SPI","enable",1.46122608,0.00000016,,
"SPI","result",1.46139408,0.00084864,0x47,0xFE
"SPI","disable",1.46227712,0.00000016,,
"SPI","enable",1.46236096,0.00000016,,
"SPI","result",1.46252768,0.00084864,0x01,0xB8
"SPI","disable",1.463412,0.00000016,,
"SPI","enable",1.46350256,0.00000016,,
"SPI","result",1.46366112,0.0008488,0x8B,0xB8
"SPI","disable",1.46453536,0.00000016,,
"SPI","enable",1.46462304,0.00000016,,
"SPI","result",1.46479472,0.0008488,0x87,0x74
"SPI","disable",1.46599584,0.00000016,,
"SPI","enable",1.56231136,0.00000016,,
"SPI","result",1.562508,0.0008488,0x47,0xFE
"SPI","disable",1.5643144,0.00000016,,
"SPI","enable",1.56439824,0.00000016,,
"SPI","result",1.56454848,0.00084864,0x01,0xB8
"SPI","disable",1.56543104,0.00000016,,
"SPI","enable",1.56552176,0.00000016,,
"SPI","result",1.56568208,0.00084864,0x8B,0xB8
"SPI","disable",1.56657264,0.00000016,,
"SPI","enable",1.56670608,0.00000016,,
"SPI","result",1.56681552,0.0008488,0x87,0x74
"SPI","disable",1.56770272,0.00000016,,
"SPI","enable",1.59812512,0.00000016,,
"SPI","result",1.59821536,0.00084864,0x47,0xFE
"SPI","disable",1.59910368,0.00000016,,
"SPI","enable",1.59918752,0.00000016,,
"SPI","result",1.59934896,0.00084864,0x01,0xB8
"SPI","disable",1.60023856,0.00000016,,
"SPI","enable",1.60032912,0.00000016,,
"SPI","result",1.6004824,0.0008488,0x8B,0xB8
"SPI","disable",1.60137152,0.00000016,,
"SPI","enable",1.6014592,0.00000016,,
"SPI","result",1.601616,0.0008488,0x87,0x74
"SPI","disable",1.602492,0.00000016,,
"SPI","enable",1.6027312,0.00000016,,
"SPI","result",1.60286288,0.0008488,0x47,0x72
"SPI","disable",1.60374592,0.00000016,,
"SPI","enable",1.60382992,0.00000016,,
"SPI","result",1.60399648,0.0008488,0x8D,0xB8
"SPI","disable",1.6048808,0.00000016,,
"SPI","enable",1.60497136,0.00000016,,
"SPI","result",1.60513008,0.0008488,0x07,0xB8
"SPI","disable",1.6065336,0.00000016,,
"SPI","enable",1.60662128,0.00000016,,
"SPI","result",1.60671712,0.00084864,0x87,0xF8
"SPI","disable",1.60759984,0.00000016,,
"SPI","enable",1.704872,0.00000016,,
"SPI","result",1.70499712,0.0008488,0x47,0xFE
"SPI","disable",1.70588688,0.00000016,,
"SPI","enable",1.70597072,0.00000016,,
"SPI","result",1.70613072,0.00084864,0x01,0xB8
"SPI","disable",1.7070216,0.00000016,,
"SPI","enable",1.70711232,0.00000016,,
"SPI","result",1.70726432,0.00084864,0x8B,0xB8
"SPI","disable",1.70815456,0.00000016,,
"SPI","enable",1.7082424,0.00000016,,
"SPI","result",1.70839776,0.0008488,0x87,0x74
"SPI","disable",1.7092752,0.00000016,,
"SPI","enable",1.80704928,0.00000016,,
"SPI","result",1.80724464,0.0008488,0x47,0xFE
"SPI","disable",1.80811824,0.00000016,,
"SPI","enable",1.80820224,0.00000016,,
"SPI","result",1.80837824,0.0008488,0x01,0xB8
"SPI","disable",1.80925312,0.00000016,,
"SPI","enable",1.80934368,0.00000016,,
"SPI","result",1.80951184,0.00084864,0x8B,0xB8
"SPI","disable",1.81038608,0.00000016,,
"SPI","enable",1.81047376,0.00000016,,
"SPI","result",1.81064544,0.00084864,0x87,0x74
"SPI","disable",1.8115248,0.00000016,,
"SPI","enable",1.90820496,0.00000016,,
"SPI","result",1.90835856,0.0008488,0x47,0xFE
"SPI","disable",1.9092472,0.00000016,,
"SPI","enable",1.9093312,0.00000016,,
"SPI","result",1.90949216,0.0008488,0x01,0xB8
"SPI","disable",1.91038208,0.00000016,,
"SPI","enable",1.91047264,0.00000016,,
"SPI","result",1.91062576,0.00084864,0x8B,0xB8
"SPI","disable",1.9115056,0.00000016,,
"SPI","enable",1.91159328,0.00000016,,
"SPI","result",1.91175936,0.00084864,0x87,0x74
"SPI","disable",1.91264416,0.00000016,,
"SPI","enable",2.00929584,0.00000016,,
"SPI","result",2.00947248,0.0008488,0x47,0xFE
"SPI","disable",2.01091616,0.00000016,,
"SPI","enable",2.011,0.00000016,,
"SPI","result",2.01117296,0.00084864,0x01,0xB8
"SPI","disable",2.01205088,0.00000016,,
"SPI","enable",2.01214144,0.00000016,,
"SPI","result",2.0123064,0.0008488,0x8B,0xB8
"SPI","disable",2.01319248,0.00000016,,
"SPI","enable",2.01328016,0.00000016,,
"SPI","result",2.01344,0.0008488,0x87,0x74
"SPI","disable",2.0143312,0.00000016,,
"SPI","enable",2.11206144,0.00000016,,
"SPI","result",2.1121736,0.00084864,0x47,0xFE
"SPI","disable",2.11305808,0.00000016,,
"SPI","enable",2.11314208,0.00000016,,
"SPI","result",2.11330704,0.0008488,0x01,0xB8
"SPI","disable",2.11419296,0.00000016,,
"SPI","enable",2.11428352,0.00000016,,
"SPI","result",2.11444064,0.0008488,0x8B,0xB8
"SPI","disable",2.11531632,0.00000016,,
"SPI","enable",2.11540416,0.00000016,,
"SPI","result",2.11557424,0.00084864,0x87,0x74
"SPI","disable",2.11645504,0.00000016,,
"SPI","enable",2.21311136,0.00000016,,
"SPI","result",2.21328752,0.0008488,0x47,0xFE
"SPI","disable",2.2141624,0.00000016,,
"SPI","enable",2.21424624,0.00000016,,
"SPI","result",2.21442112,0.00084864,0x01,0xB8
"SPI","disable",2.21529728,0.00000016,,
"SPI","enable",2.21538784,0.00000016,,
"SPI","result",2.21555472,0.00084864,0x8B,0xB8
"SPI","disable",2.21643872,0.00000016,,
"SPI","enable",2.2165264,0.00000016,,
"SPI","result",2.21668816,0.0008488,0x87,0x74
"SPI","disable",2.21757744,0.00000016,,
"SPI","enable",2.31424144,0.00000016,,
"SPI","result",2.3144016,0.00084864,0x47,0xFE
"SPI","disable",2.31529232,0.00000016,,
"SPI","enable",2.31537616,0.00000016,,
"SPI","result",2.31553504,0.0008488,0x01,0xB8
"SPI","disable",2.31640912,0.00000016,,
"SPI","enable",2.31649968,0.00000016,,
"SPI","result",2.31666864,0.0008488,0x8B,0xB8
"SPI","disable",2.31755056,0.00000016,,
"SPI","enable",2.3176384,0.00000016,,
"SPI","result",2.31780224,0.00084864,0x87,0x74
"SPI","disable",2.31868928,0.00000016,,
"SPI","enable",2.41536464,0.00000016,,
"SPI","result",2.41551552,0.0008488,0x47,0xFE
"SPI","disable",2.4163976,0.00000016,,
"SPI","enable",2.41648144,0.00000016,,
"SPI","result",2.41664912,0.00084864,0x01,0xB8
"SPI","disable",2.41753232,0.00000016,,
"SPI","enable",2.41762304,0.00000016,,
"SPI","result",2.41778256,0.0008488,0x8B,0xB8
"SPI","disable",2.41867392,0.00000016,,
"SPI","enable",2.4187616,0.00000016,,
"SPI","result",2.41891616,0.0008488,0x87,0x74
"SPI","disable",2.4197944,0.00000016,,
"SPI","enable",2.51646416,0.00000016,,
"SPI","result",2.51662944,0.00084864,0x47,0xFE
"SPI","disable",2.51751504,0.00000016,,
"SPI","enable",2.51759904,0.00000016,,
"SPI","result",2.51776288,0.0008488,0x01,0xB8
"SPI","disable",2.51864992,0.00000016,,
"SPI","enable",2.51874048,0.00000016,,
"SPI","result",2.51889648,0.0008488,0x8B,0xB8
"SPI","disable",2.51977344,0.00000016,,
"SPI","enable",2.51986112,0.00000016,,
"SPI","result",2.52003008,0.0008488,0x87,0x74
"SPI","disable",2.520912,0.00000016,,
"SPI","enable",2.61757136,0.00000016,,
"SPI","result",2.61774336,0.0008488,0x47,0xFE
"SPI","disable",2.61862224,0.00000016,,
"SPI","enable",2.61870608,0.00000016,,
"SPI","result",2.61887696,0.00084864,0x01,0xB8
"SPI","disable",2.61975712,0.00000016,,
"SPI","enable",2.61984768,0.00000016,,
"SPI","result",2.62001056,0.00084864,0x8B,0xB8
"SPI","disable",2.62089008,0.00000016,,
"SPI","enable",2.62097776,0.00000016,,
"SPI","result",2.621144,0.0008488,0x87,0x74
"SPI","disable",2.62202864,0.00000016,,
"SPI","enable",2.71872128,0.00000016,,
"SPI","result",2.71885744,0.00084864,0x47,0xFE
"SPI","disable",2.719736,0.00000016,,
"SPI","enable",2.71981984,0.00000016,,
"SPI","result",2.71999088,0.0008488,0x01,0xB8
"SPI","disable",2.72087088,0.00000016,,
"SPI","enable",2.72096144,0.00000016,,
"SPI","result",2.72112448,0.0008488,0x8B,0xB8
"SPI","disable",2.72201232,0.00000016,,
"SPI","enable",2.72210016,0.00000016,,
"SPI","result",2.72225808,0.0008488,0x87,0x74
"SPI","disable",2.72313296,0.00000016,,
"SPI","enable",2.81979984,0.00000016,,
"SPI","result",2.81997136,0.0008488,0x47,0xFE
"SPI","disable",2.82085072,0.00000016,,
"SPI","enable",2.82093456,0.00000016,,
"SPI","result",2.82110496,0.00084864,0x01,0xB8
"SPI","disable",2.8219856,0.00000016,,
"SPI","enable",2.82207616,0.00000016,,
"SPI","result",2.82223856,0.00084864,0x8B,0xB8
"SPI","disable",2.82312704,0.00000016,,
"SPI","enable",2.82321488,0.00000016,,
"SPI","result",2.823372,0.0008488,0x87,0x74
"SPI","disable",2.82424768,0.00000016,,
"SPI","enable",2.92094016,0.00000016,,
"SPI","result",2.92108544,0.00084864,0x47,0xFE
"SPI","disable",2.92197312,0.00000016,,
"SPI","enable",2.92205696,0.00000016,,
"SPI","result",2.92221888,0.0008488,0x01,0xB8
"SPI","disable",2.923108,0.00000016,,
"SPI","enable",2.92319856,0.00000016,,
"SPI","result",2.92335248,0.0008488,0x8B,0xB8
"SPI","disable",2.92423136,0.00000016,,
"SPI","enable",2.92431904,0.00000016,,
"SPI","result",2.92448608,0.00084864,0x87,0x74
"SPI","disable",2.92604784,0.00000016,,
"SPI","enable",3.02201872,0.00000016,,
"SPI","result",3.0221992,0.0008488,0x47,0xFE
"SPI","disable",3.02308784,0.00000016,,
"SPI","enable",3.02317168,0.00000016,,
"SPI","result",3.0233328,0.0008488,0x01,0xB8
"SPI","disable",3.02422272,0.00000016,,
"SPI","enable",3.02431328,0.00000016,,
"SPI","result",3.0244664,0.00084864,0x8B,0xB8
"SPI","disable",3.02534608,0.00000016,,
"SPI","enable",3.02543376,0.00000016,,
"SPI","result",3.0256,0.00084864,0x87,0x74
"SPI","disable",3.0264848,0.00000016,,
"SPI","enable",3.12313072,0.00000016,,
"SPI","result",3.12331328,0.00084864,0x47,0xFE
"SPI","disable",3.12419968,0.00000016,,
"SPI","enable",3.12428352,0.00000016,,
"SPI","result",3.12444688,0.00084864,0x01,0xB8
"SPI","disable",3.12533456,0.00000016,,
"SPI","enable",3.12542512,0.00000016,,
"SPI","result",3.12558032,0.0008488,0x8B,0xB8
"SPI","disable",3.12645792,0.00000016,,
"SPI","enable",3.12654576,0.00000016,,
"SPI","result",3.12671392,0.0008488,0x87,0x74
"SPI","disable",3.12759664,0.00000016,,
"SPI","enable",3.1602592,0.00000016,,
"SPI","result",3.1603808,0.0008488,0x47,0xFE
"SPI","disable",3.16125584,0.00000016,,
"SPI","enable",3.16133968,0.00000016,,
"SPI","result",3.1615144,0.00084864,0x01,0xB8
"SPI","disable",3.16239072,0.00000016,,
"SPI","enable",3.16248128,0.00000016,,
"SPI","result",3.162648,0.00084864,0x8B,0xB8
"SPI","disable",3.16353216,0.00000016,,
"SPI","enable",3.16362,0.00000016,,
"SPI","result",3.16378144,0.0008488,0x87,0x74
"SPI","disable",3.16467088,0.00000016,,
"SPI","enable",3.16490992,0.00000016,,
"SPI","result",3.16502848,0.00084864,0x47,0xF2
"SPI","disable",3.16590672,0.00000016,,
"SPI","enable",3.16599056,0.00000016,,
"SPI","result",3.16616192,0.0008488,0x0D,0xB8
"SPI","disable",3.1670416,0.00000016,,
"SPI","enable",3.16713216,0.00000016,,
"SPI","result",3.16729552,0.0008488,0x07,0xB8
"SPI","disable",3.16818304,0.00000016,,
"SPI","enable",3.16827072,0.00000016,,
"SPI","result",3.16842912,0.0008488,0x87,0xF8
"SPI","disable",3.16930368,0.00000016,,
