name,type,start_time,duration,"mosi","miso"
"SPI","enable",0.121210942,0.000000001,,
"SPI","result",0.121366679,0.000848122,0xFE,0x47
"SPI","disable",0.122247168,0.000000001,,
"SPI","enable",0.12232781,0.000000001,,
"SPI","result",0.122500207,0.000848121,0xB8,0x01
"SPI","disable",0.123382132,0.000000001,,
"SPI","enable",0.123469432,0.000000001,,
"SPI","result",0.123633734,0.000848122,0xB8,0x8B
"SPI","disable",0.124523759,0.000000001,,
"SPI","enable",0.12460821,0.000000001,,
"SPI","result",0.124767268,0.000848114,0x74,0x87
"SPI","disable",0.125644443,0.000000001,,
"SPI","enable",0.22231393,0.000000001,,
"SPI","result",0.222477381,0.000848122,0xFE,0x47
"SPI","disable",0.223368253,0.000000001,,
"SPI","enable",0.223448881,0.000000001,,
"SPI","result",0.223610907,0.000848122,0xB8,0x01
"SPI","disable",0.224485107,0.000000001,,
"SPI","enable",0.224572427,0.000000001,,
"SPI","result",0.224744439,0.000848118,0xB8,0x8B
"SPI","disable",0.225626746,0.000000001,,
"SPI","enable",0.225711202,0.000000001,,
"SPI","result",0.225877967,0.000848118,0x74,0x87
"SPI","disable",0.226765518,0.000000001,,
"SPI","enable",0.323435006,0.000000001,,
"SPI","result",0.323588082,0.000848122,0xFE,0x47
"SPI","disable",0.324471241,0.000000001,,
"SPI","enable",0.324551877,0.000000001,,
"SPI","result",0.324721607,0.000848125,0xB8,0x01
"SPI","disable",0.325606207,0.000000001,,
"SPI","enable",0.325693501,0.000000001,,
"SPI","result",0.325855134,0.000848124,0xB8,0x8B
"SPI","disable",0.326729734,0.000000001,,
"SPI","enable",0.326814187,0.000000001,,
"SPI","result",0.32698867,0.000848116,0x74,0x87
"SPI","disable",0.327868493,0.000000001,,
"SPI","enable",0.424537997,0.000000001,,
"SPI","result",0.424698651,0.00084812,0xFE,0x47
"SPI","disable",0.425574212,0.000000001,,
"SPI","enable",0.425654862,0.000000001,,
"SPI","result",0.425832174,0.000848123,0xB8,0x01
"SPI","disable",0.42670919,0.000000001,,
"SPI","enable",0.426796493,0.000000001,,
"SPI","result",0.426965697,0.000848128,0xB8,0x8B
"SPI","disable",0.427850812,0.000000001,,
"SPI","enable",0.427935264,0.000000001,,
"SPI","result",0.428099235,0.000848117,0x74,0x87
"SPI","disable",0.428989577,0.000000001,,
"SPI","enable",0.525674312,0.000000001,,
"SPI","result",0.525809347,0.000848123,0xFE,0x47
"SPI","disable",0.526692433,0.000000001,,
"SPI","enable",0.526773089,0.000000001,,
"SPI","result",0.526942874,0.000848122,0xB8,0x01
"SPI","disable",0.527827402,0.000000001,,
"SPI","enable",0.527914718,0.000000001,,
"SPI","result",0.5280764,0.000848124,0xB8,0x8B
"SPI","disable",0.528950944,0.000000001,,
"SPI","enable",0.529035393,0.000000001,,
"SPI","result",0.529209932,0.000848119,0x74,0x87
"SPI","disable",0.530089708,0.000000001,,
"SPI","enable",0.626737307,0.000000001,,
"SPI","result",0.62692005,0.000848122,0xFE,0x47
"SPI","disable",0.627809711,0.000000001,,
"SPI","enable",0.627890352,0.000000001,,
"SPI","result",0.628053576,0.000848123,0xB8,0x01
"SPI","disable",0.628944672,0.000000001,,
"SPI","enable",0.629031988,0.000000001,,
"SPI","result",0.629187102,0.000848125,0xB8,0x8B
"SPI","disable",0.630068215,0.000000001,,
"SPI","enable",0.630152664,0.000000001,,
"SPI","result",0.630320637,0.000848117,0x74,0x87
"SPI","disable",0.631206985,0.000000001,,
"SPI","enable",0.727875527,0.000000001,,
"SPI","result",0.728030757,0.000848122,0xFE,0x47
"SPI","disable",0.728911749,0.000000001,,
"SPI","enable",0.728992387,0.000000001,,
"SPI","result",0.729164281,0.000848124,0xB8,0x01
"SPI","disable",0.730915075,0.000000001,,
"SPI","enable",0.731002381,0.000000001,,
"SPI","result",0.731204633,0.000848122,0xB8,0x8B
"SPI","disable",0.732092892,0.000000001,,
"SPI","enable",0.73217733,0.000000001,,
"SPI","result",0.732338167,0.000848116,0x74,0x87
"SPI","disable",0.733213538,0.000000001,,
"SPI","enable",0.829897337,0.000000001,,
"SPI","result",0.830048283,0.000848121,0xFE,0x47
"SPI","disable",0.830933563,0.000000001,,
"SPI","enable",0.831014202,0.000000001,,
"SPI","result",0.831181808,0.000848123,0xB8,0x01
"SPI","disable",0.832068521,0.000000001,,
"SPI","enable",0.832155828,0.000000001,,
"SPI","result",0.832315337,0.000848122,0xB8,0x8B
"SPI","disable",0.833192063,0.000000001,,
"SPI","enable",0.833276508,0.000000001,,
"SPI","result",0.833448869,0.000848117,0x74,0x87
"SPI","disable",0.834488887,0.000000001,,
"SPI","enable",0.931881059,0.000000001,,
"SPI","result",0.932065796,0.000848114,0xFE,0x47
"SPI","disable",0.932953472,0.000000001,,
"SPI","enable",0.933034109,0.000000001,,
"SPI","result",0.933199308,0.000848122,0xB8,0x01
"SPI","disable",0.934088416,0.000000001,,
"SPI","enable",0.934175742,0.000000001,,
"SPI","result",0.934332834,0.000848117,0xB8,0x8B
"SPI","disable",0.935211966,0.000000001,,
"SPI","enable",0.935296421,0.000000001,,
"SPI","result",0.93546636,0.000848112,0x74,0x87
"SPI","disable",0.936350735,0.000000001,,
"SPI","enable",1.033022141,0.000000001,,
"SPI","result",1.033176385,0.000848113,0xFE,0x47
"SPI","disable",1.034058364,0.000000001,,
"SPI","enable",1.034139001,0.000000001,,
"SPI","result",1.034309902,0.000848123,0xB8,0x01
"SPI","disable",1.035193322,0.000000001,,
"SPI","enable",1.035280629,0.000000001,,
"SPI","result",1.03544343,0.000848123,0xB8,0x8B
"SPI","disable",1.036334951,0.000000001,,
"SPI","enable",1.036419401,0.000000001,,
"SPI","result",1.036576962,0.000848119,0x74,0x87
"SPI","disable",1.037465146,0.000000001,,
"SPI","enable",1.134118455,0.000000001,,
"SPI","result",1.134287082,0.000848123,0xFE,0x47
"SPI","disable",1.13517277,0.000000001,,
"SPI","enable",1.135253418,0.000000001,,
"SPI","result",1.135420606,0.000848126,0xB8,0x01
"SPI","disable",1.136307729,0.000000001,,
"SPI","enable",1.136395048,0.000000001,,
"SPI","result",1.136554132,0.000848126,0xB8,0x8B
"SPI","disable",1.137431277,0.000000001,,
"SPI","enable",1.137515725,0.000000001,,
"SPI","result",1.137687669,0.000848116,0x74,0x87
"SPI","disable",1.138579567,0.000000001,,
"SPI","enable",1.23578703,0.000000001,,
"SPI","result",1.235964551,0.000848122,0xFE,0x47
"SPI","disable",1.236841326,0.000000001,,
"SPI","enable",1.236921984,0.000000001,,
"SPI","result",1.237098073,0.000848127,0xB8,0x01
"SPI","disable",1.237976306,0.000000001,,
"SPI","enable",1.238063607,0.000000001,,
"SPI","result",1.2382316,0.000848127,0xB8,0x8B
"SPI","disable",1.239117933,0.000000001,,
"SPI","enable",1.239202377,0.000000001,,
"SPI","result",1.239365141,0.000848114,0x74,0x87
"SPI","disable",1.240248127,0.000000001,,
"SPI","enable",1.336923338,0.000000001,,
"SPI","result",1.337075257,0.000848123,0xFE,0x47
"SPI","disable",1.338916477,0.000000001,,
"SPI","enable",1.338997114,0.000000001,,
"SPI","result",1.339115609,0.000848121,0xB8,0x01
"SPI","disable",1.339997158,0.000000001,,
"SPI","enable",1.340084469,0.000000001,,
"SPI","result",1.340249135,0.000848123,0xB8,0x8B
"SPI","disable",1.341138792,0.000000001,,
"SPI","enable",1.341223237,0.000000001,,
"SPI","result",1.341382669,0.000848116,0x74,0x87
"SPI","disable",1.342259467,0.000000001,,
"SPI","enable",1.439146051,0.000000001,,
"SPI","result",1.439319497,0.00084812,0xFE,0x47
"SPI","disable",1.440200374,0.000000001,,
"SPI","enable",1.44028101,0.000000001,,
"SPI","result",1.440453022,0.000848122,0xB8,0x01
"SPI","disable",1.441335333,0.000000001,,
"SPI","enable",1.441422638,0.000000001,,
"SPI","result",1.441586549,0.000848123,0xB8,0x8B
"SPI","disable",1.442468382,0.000000001,,
"SPI","enable",1.442552843,0.000000001,,
"SPI","result",1.442720082,0.000848117,0x74,0x87
"SPI","disable",1.443607158,0.000000001,,
"SPI","enable",1.540252854,0.000000001,,
"SPI","result",1.540430065,0.00084812,0xFE,0x47
"SPI","disable",1.541307171,0.000000001,,
"SPI","enable",1.5414059,0.000000001,,
"SPI","result",1.541563587,0.000848125,0xB8,0x01
"SPI","disable",1.542713492,0.000000001,,
"SPI","enable",1.542800797,0.000000001,,
"SPI","result",1.542923822,0.000848123,0xB8,0x8B
"SPI","disable",1.543800848,0.000000001,,
"SPI","enable",1.543885301,0.000000001,,
"SPI","result",1.544057355,0.000848118,0x74,0x87
"SPI","disable",1.544939611,0.000000001,,
"SPI","enable",1.641625295,0.000000001,,
"SPI","result",1.641767477,0.000848122,0xFE,0x47
"SPI","disable",1.642643427,0.000000001,,
"SPI","enable",1.642724072,0.000000001,,
"SPI","result",1.642901001,0.000848126,0xB8,0x01
"SPI","disable",1.643778397,0.000000001,,
"SPI","enable",1.643865706,0.000000001,,
"SPI","result",1.644034529,0.000848125,0xB8,0x8B
"SPI","disable",1.644920009,0.000000001,,
"SPI","enable",1.645004476,0.000000001,,
"SPI","result",1.645168062,0.000848118,0x74,0x87
"SPI","disable",1.646050225,0.000000001,,
"SPI","enable",1.742733044,0.000000001,,
"SPI","result",1.742878184,0.000848123,0xFE,0x47
"SPI","disable",1.744275792,0.000000001,,
"SPI","enable",1.744356461,0.000000001,,
"SPI","result",1.74446512,0.000848125,0xB8,0x01
"SPI","disable",1.745356502,0.000000001,,
"SPI","enable",1.745443815,0.000000001,,
"SPI","result",1.745598647,0.000848126,0xB8,0x8B
"SPI","disable",1.746480044,0.000000001,,
"SPI","enable",1.746564489,0.000000001,,
"SPI","result",1.746732184,0.000848116,0x74,0x87
"SPI","disable",1.74761881,0.000000001,,
"SPI","enable",1.844280695,0.000000001,,
"SPI","result",1.844442301,0.000848125,0xFE,0x47
"SPI","disable",1.845316888,0.000000001,,
"SPI","enable",1.845397553,0.000000001,,
"SPI","result",1.84557583,0.000848123,0xB8,0x01
"SPI","disable",1.846451878,0.000000001,,
"SPI","enable",1.846539179,0.000000001,,
"SPI","result",1.846709358,0.000848123,0xB8,0x8B
"SPI","disable",1.847593507,0.000000001,,
"SPI","enable",1.847677952,0.000000001,,
"SPI","result",1.847842894,0.000848114,0x74,0x87
"SPI","disable",1.84873228,0.000000001,,
"SPI","enable",1.945415098,0.000000001,,
"SPI","result",1.945553013,0.000848123,0xFE,0x47
"SPI","disable",1.946433229,0.000000001,,
"SPI","enable",1.946513874,0.000000001,,
"SPI","result",1.946686543,0.000848119,0xB8,0x01
"SPI","disable",1.947568198,0.000000001,,
"SPI","enable",1.947655503,0.000000001,,
"SPI","result",1.947820067,0.000848123,0xB8,0x8B
"SPI","disable",1.948709827,0.000000001,,
"SPI","enable",1.948794272,0.000000001,,
"SPI","result",1.948953602,0.000848117,0x74,0x87
"SPI","disable",1.949830507,0.000000001,,
"SPI","enable",2.046499987,0.000000001,,
"SPI","result",2.046663582,0.000848122,0xFE,0x47
"SPI","disable",2.047554317,0.000000001,,
"SPI","enable",2.047634955,0.000000001,,
"SPI","result",2.047797109,0.000848121,0xB8,0x01
"SPI","disable",2.048671187,0.000000001,,
"SPI","enable",2.048758483,0.000000001,,
"SPI","result",2.048930634,0.000848124,0xB8,0x8B
"SPI","disable",2.049812812,0.000000001,,
"SPI","enable",2.049897263,0.000000001,,
"SPI","result",2.050064169,0.000848117,0x74,0x87
"SPI","disable",2.050951582,0.000000001,,
"SPI","enable",2.147621068,0.000000001,,
"SPI","result",2.147774291,0.000848121,0xFE,0x47
"SPI","disable",2.148657302,0.000000001,,
"SPI","enable",2.148737944,0.000000001,,
"SPI","result",2.148907815,0.000848123,0xB8,0x01
"SPI","disable",2.149792262,0.000000001,,
"SPI","enable",2.149879552,0.000000001,,
"SPI","result",2.150041341,0.000848125,0xB8,0x8B
"SPI","disable",2.150915803,0.000000001,,
"SPI","enable",2.151000249,0.000000001,,
"SPI","result",2.151174877,0.000848116,0x74,0x87
"SPI","disable",2.152054567,0.000000001,,
"SPI","enable",2.248724063,0.000000001,,
"SPI","result",2.248884997,0.000848123,0xFE,0x47
"SPI","disable",2.24976029,0.000000001,,
"SPI","enable",2.24984093,0.000000001,,
"SPI","result",2.250018504,0.000848143,0xB8,0x01
"SPI","disable",2.250895252,0.000000001,,
"SPI","enable",2.250982556,0.000000001,,
"SPI","result",2.251152051,0.000848124,0xB8,0x8B
"SPI","disable",2.252036875,0.000000001,,
"SPI","enable",2.252121327,0.000000001,,
"SPI","result",2.252285584,0.000848117,0x74,0x87
"SPI","disable",2.253175642,0.000000001,,
"SPI","enable",2.34984514,0.000000001,,
"SPI","result",2.349995705,0.000848126,0xFE,0x47
"SPI","disable",2.35088137,0.000000001,,
"SPI","enable",2.350962009,0.000000001,,
"SPI","result",2.351129233,0.000848123,0xB8,0x01
"SPI","disable",2.352016317,0.000000001,,
"SPI","enable",2.352103631,0.000000001,,
"SPI","result",2.352262759,0.000848125,0xB8,0x8B
"SPI","disable",2.353139862,0.000000001,,
"SPI","enable",2.353224317,0.000000001,,
"SPI","result",2.353396293,0.00084812,0x74,0x87
"SPI","disable",2.354278635,0.000000001,,
"SPI","enable",2.450948123,0.000000001,,
"SPI","result",2.451106421,0.000848121,0xFE,0x47
"SPI","disable",2.451984349,0.000000001,,
"SPI","enable",2.452064981,0.000000001,,
"SPI","result",2.452239944,0.000848125,0xB8,0x01
"SPI","disable",2.453119313,0.000000001,,
"SPI","enable",2.453206622,0.000000001,,
"SPI","result",2.453373471,0.000848125,0xB8,0x8B
"SPI","disable",2.454260943,0.000000001,,
"SPI","enable",2.454345393,0.000000001,,
"SPI","result",2.454507007,0.000848118,0x74,0x87
"SPI","disable",2.455381618,0.000000001,,
"SPI","enable",2.552065398,0.000000001,,
"SPI","result",2.552216991,0.000848122,0xFE,0x47
"SPI","disable",2.553101624,0.000000001,,
"SPI","enable",2.553182269,0.000000001,,
"SPI","result",2.553350516,0.000848123,0xB8,0x01
"SPI","disable",2.554236587,0.000000001,,
"SPI","enable",2.554323887,0.000000001,,
"SPI","result",2.554484046,0.000848121,0xB8,0x8B
"SPI","disable",2.555360127,0.000000001,,
"SPI","enable",2.555444571,0.000000001,,
"SPI","result",2.555617578,0.000848116,0x74,0x87
"SPI","disable",2.556498898,0.000000001,,
"SPI","enable",2.653164574,0.000000001,,
"SPI","result",2.653327698,0.000848121,0xFE,0x47
"SPI","disable",2.654218878,0.000000001,,
"SPI","enable",2.654299531,0.000000001,,
"SPI","result",2.654461224,0.000848123,0xB8,0x01
"SPI","disable",2.655338606,0.000000001,,
"SPI","enable",2.655425923,0.000000001,,
"SPI","result",2.655594752,0.000848122,0xB8,0x8B
"SPI","disable",2.65648023,0.000000001,,
"SPI","enable",2.656564694,0.000000001,,
"SPI","result",2.656728285,0.000848117,0x74,0x87
"SPI","disable",2.657619017,0.000000001,,
"SPI","enable",2.754302789,0.000000001,,
"SPI","result",2.754438409,0.000848122,0xFE,0x47
"SPI","disable",2.755320924,0.000000001,,
"SPI","enable",2.755401563,0.000000001,,
"SPI","result",2.755571937,0.000848121,0xB8,0x01
"SPI","disable",2.756455889,0.000000001,,
"SPI","enable",2.756543194,0.000000001,,
"SPI","result",2.756705464,0.000848122,0xB8,0x8B
"SPI","disable",2.75757942,0.000000001,,
"SPI","enable",2.757663874,0.000000001,,
"SPI","result",2.757838997,0.000848116,0x74,0x87
"SPI","disable",2.758718192,0.000000001,,
"SPI","enable",2.855361977,0.000000001,,
"SPI","result",2.855549125,0.000848119,0xFE,0x47
"SPI","disable",2.856434387,0.000000001,,
"SPI","enable",2.856515023,0.000000001,,
"SPI","result",2.856682648,0.000848123,0xB8,0x01
"SPI","disable",2.857569346,0.000000001,,
"SPI","enable",2.857656657,0.000000001,,
"SPI","result",2.857816176,0.000848123,0xB8,0x8B
"SPI","disable",2.858692882,0.000000001,,
"SPI","enable",2.858777333,0.000000001,,
"SPI","result",2.858949712,0.000848115,0x74,0x87
"SPI","disable",2.859831644,0.000000001,,
"SPI","enable",2.956490666,0.000000001,,
"SPI","result",2.956659837,0.000848121,0xFE,0x47
"SPI","disable",2.957909655,0.000000001,,
"SPI","enable",2.957990304,0.000000001,,
"SPI","result",2.95813342,0.000848123,0xB8,0x01
"SPI","disable",2.959008435,0.000000001,,
"SPI","enable",2.959095749,0.000000001,,
"SPI","result",2.95926695,0.000848122,0xB8,0x8B
"SPI","disable",2.960150069,0.000000001,,
"SPI","enable",2.960234521,0.000000001,,
"SPI","result",2.960400479,0.000848118,0x74,0x87
"SPI","disable",2.961288837,0.000000001,,
"SPI","enable",3.00203481,0.000000001,,
"SPI","result",3.00222763,0.000848119,0xFE,0x47
"SPI","disable",3.003107213,0.000000001,,
"SPI","enable",3.003187858,0.000000001,,
"SPI","result",3.003361149,0.000848122,0xB8,0x01
"SPI","disable",3.004242175,0.000000001,,
"SPI","enable",3.004329491,0.000000001,,
"SPI","result",3.004494677,0.000848116,0xB8,0x8B
"SPI","disable",3.005383812,0.000000001,,
"SPI","enable",3.005468258,0.000000001,,
"SPI","result",3.005628204,0.00084811,0x74,0x87
"SPI","disable",3.006514012,0.000000001,,
"SPI","enable",3.006749853,0.000000001,,
"SPI","result",3.006875072,0.000848115,0xD2,0x47
"SPI","disable",3.007749901,0.000000001,,
"SPI","enable",3.00783055,0.000000001,,
"SPI","result",3.008008588,0.00084812,0xB8,0x2D
"SPI","disable",3.008884864,0.000000001,,
"SPI","enable",3.008972169,0.000000001,,
"SPI","result",3.009142107,0.000848123,0xB8,0x07
"SPI","disable",3.010026493,0.000000001,,
"SPI","enable",3.010110945,0.000000001,,
"SPI","result",3.010275631,0.000848122,0xF8,0x87
"SPI","disable",3.011165261,0.000000001,,
"SPI","enable",3.011286847,0.000000001,,
"SPI","result",3.01140916,0.000848113,0x92,0x47
"SPI","disable",3.013132408,0.000000001,,
"SPI","enable",3.013213042,0.000000001,,
"SPI","result",3.01333614,0.000848117,0xB8,0x6D
"SPI","disable",3.014213097,0.000000001,,
"SPI","enable",3.014300394,0.000000001,,
"SPI","result",3.014469663,0.000848116,0xB8,0x07
"SPI","disable",3.015354717,0.000000001,,
"SPI","enable",3.015439172,0.000000001,,
"SPI","result",3.015603181,0.000848121,0xF8,0x87
"SPI","disable",3.016493492,0.000000001,,
"SPI","enable",3.016612221,0.000000001,,
"SPI","result",3.016736711,0.000848113,0x82,0x47
"SPI","disable",3.017621787,0.000000001,,
"SPI","enable",3.017702434,0.000000001,,
"SPI","result",3.017870226,0.000848118,0xB8,0x7D
"SPI","disable",3.018756732,0.000000001,,
"SPI","enable",3.018844062,0.000000001,,
"SPI","result",3.019003747,0.000848119,0xB8,0x07
"SPI","disable",3.019880286,0.000000001,,
"SPI","enable",3.019964742,0.000000001,,
"SPI","result",3.020137266,0.000848123,0xF8,0x87
"SPI","disable",3.02101906,0.000000001,,
"SPI","enable",3.021157768,0.000000001,,
"SPI","result",3.021270799,0.000848117,0xEC,0x47
"SPI","disable",3.02215783,0.000000001,,
"SPI","enable",3.022238461,0.000000001,,
"SPI","result",3.02240432,0.000848123,0xB8,0x13
"SPI","disable",3.023292795,0.000000001,,
"SPI","enable",3.023380101,0.000000001,,
"SPI","result",3.023537848,0.000848122,0xB8,0x07
"SPI","disable",3.02441633,0.000000001,,
"SPI","enable",3.024500777,0.000000001,,
"SPI","result",3.024671374,0.000848124,0xF8,0x87
"SPI","disable",3.026259678,0.000000001,,
"SPI","enable",3.026380322,0.000000001,,
"SPI","result",3.026485024,0.000848117,0x2C,0x47
"SPI","disable",3.027362274,0.000000001,,
"SPI","enable",3.027442927,0.000000001,,
"SPI","result",3.027618537,0.000848132,0xB8,0xD3
"SPI","disable",3.02849723,0.000000001,,
"SPI","enable",3.028584547,0.000000001,,
"SPI","result",3.02875208,0.000848116,0xB8,0x07
"SPI","disable",3.029638854,0.000000001,,
"SPI","enable",3.029723321,0.000000001,,
"SPI","result",3.0298856,0.000848123,0xF8,0x87
"SPI","disable",3.030759545,0.000000001,,
"SPI","enable",3.127603146,0.000000001,,
"SPI","result",3.127709056,0.000848113,0xFE,0x47
"SPI","disable",3.128585098,0.000000001,,
"SPI","enable",3.128665743,0.000000001,,
"SPI","result",3.128842571,0.000848126,0xB8,0x01
"SPI","disable",3.129720063,0.000000001,,
"SPI","enable",3.129807372,0.000000001,,
"SPI","result",3.1299761,0.000848124,0xB8,0x8B
"SPI","disable",3.130861691,0.000000001,,
"SPI","enable",3.130946143,0.000000001,,
"SPI","result",3.131109637,0.000848115,0x74,0x87
"SPI","disable",3.131991897,0.000000001,,
"SPI","enable",3.228641382,0.000000001,,
"SPI","result",3.228819764,0.000848119,0xFE,0x47
"SPI","disable",3.229695698,0.000000001,,
"SPI","enable",3.229776332,0.000000001,,
"SPI","result",3.229953287,0.000848124,0xB8,0x01
"SPI","disable",3.230830662,0.000000001,,
"SPI","enable",3.230917967,0.000000001,,
"SPI","result",3.231086816,0.000848123,0xB8,0x8B
"SPI","disable",3.231963719,0.000000001,,
"SPI","enable",3.232048171,0.000000001,,
"SPI","result",3.232220348,0.000848117,0x74,0x87
"SPI","disable",3.233102494,0.000000001,,
"SPI","enable",3.329780546,0.000000001,,
"SPI","result",3.329930476,0.000848122,0xFE,0x47
"SPI","disable",3.330808212,0.000000001,,
"SPI","enable",3.330888838,0.000000001,,
"SPI","result",3.331064002,0.000848123,0xB8,0x01
"SPI","disable",3.33194317,0.000000001,,
"SPI","enable",3.332030474,0.000000001,,
"SPI","result",3.33219753,0.000848123,0xB8,0x8B
"SPI","disable",3.333084791,0.000000001,,
"SPI","enable",3.333169243,0.000000001,,
