name,type,start_time,duration,"mosi","miso"
"SPI","enable",0.01774512,0.00000016,,
"SPI","result",0.01790448,0.00084832,0x47,0xFE
"SPI","disable",0.01878944,0.00000016,,
"SPI","enable",0.01888,0.00000016,,
"SPI","result",0.01903824,0.00084832,0x01,0xB8
"SPI","disable",0.01992448,0.00000016,,
"SPI","enable",0.02002176,0.00000016,,
"SPI","result",0.020172,0.00084832,0x8B,0xB8
"SPI","disable",0.021048,0.00000016,,
"SPI","enable",0.0211424,0.00000016,,
"SPI","result",0.02130576,0.00084832,0x87,0x74
"SPI","disable",0.02218688,0.00000016,,
"SPI","enable",0.11886896,0.00000016,,
"SPI","result",0.11903568,0.00084848,0x47,0xFE
"SPI","disable",0.11991344,0.00000016,,
"SPI","enable",0.12000384,0.00000016,,
"SPI","result",0.12016944,0.00084848,0x01,0xB8
"SPI","disable",0.12104832,0.00000016,,
"SPI","enable",0.1211456,0.00000016,,
"SPI","result",0.1213032,0.00084848,0x8B,0xB8
"SPI","disable",0.12219008,0.00000016,,
"SPI","enable",0.12228432,0.00000016,,
"SPI","result",0.12243696,0.00084848,0x87,0x74
"SPI","disable",0.12331072,0.00000016,,
"SPI","enable",0.21999296,0.00000016,,
"SPI","result",0.2201672,0.00084848,0x47,0xFE
"SPI","disable",0.22105536,0.00000016,,
"SPI","enable",0.22114592,0.00000016,,
"SPI","result",0.22130096,0.00084848,0x01,0xB8
"SPI","disable",0.2221904,0.00000016,,
"SPI","enable",0.22228752,0.00000016,,
"SPI","result",0.22243472,0.00084848,0x8B,0xB8
"SPI","disable",0.22331392,0.00000016,,
"SPI","enable",0.22340832,0.00000016,,
"SPI","result",0.22356848,0.00084848,0x87,0x74
"SPI","disable",0.2244528,0.00000016,,
"SPI","enable",0.32113488,0.00000016,,
"SPI","result",0.32129872,0.00084832,0x47,0xFE
"SPI","disable",0.32217936,0.00000016,,
"SPI","enable",0.32226976,0.00000016,,
"SPI","result",0.32243248,0.00084832,0x01,0xB8
"SPI","disable",0.32331424,0.00000016,,
"SPI","enable",0.32341136,0.00000016,,
"SPI","result",0.32356624,0.00084832,0x8B,0xB8
"SPI","disable",0.324456,0.00000016,,
"SPI","enable",0.32455024,0.00000016,,
"SPI","result",0.3247,0.00084832,0x87,0x74
"SPI","disable",0.32557664,0.00000016,,
"SPI","enable",0.42225872,0.00000016,,
"SPI","result",0.42243024,0.00084832,0x47,0xFE
"SPI","disable",0.4233032,0.00000016,,
"SPI","enable",0.42339376,0.00000016,,
"SPI","result",0.423564,0.00084832,0x01,0xB8
"SPI","disable",0.42443824,0.00000016,,
"SPI","enable",0.42453536,0.00000016,,
"SPI","result",0.42469776,0.00084832,0x8B,0xB8
"SPI","disable",0.42557984,0.00000016,,
"SPI","enable",0.42567408,0.00000016,,
"SPI","result",0.42583152,0.00084832,0x87,0x74
"SPI","disable",0.42671872,0.00000016,,
"SPI","enable",0.5234008,0.00000016,,
"SPI","result",0.5235616,0.00084848,0x47,0xFE
"SPI","disable",0.52444512,0.00000016,,
"SPI","enable",0.52453568,0.00000016,,
"SPI","result",0.52469536,0.00084848,0x01,0xB8
"SPI","disable",0.52558016,0.00000016,,
"SPI","enable",0.52567728,0.00000016,,
"SPI","result",0.52582912,0.00084848,0x8B,0xB8
"SPI","disable",0.52670368,0.00000016,,
"SPI","enable",0.52679808,0.00000016,,
"SPI","result",0.52696288,0.00084848,0x87,0x74
"SPI","disable",0.52784256,0.00000016,,
"SPI","enable",0.62452464,0.00000016,,
"SPI","result",0.62469296,0.00084848,0x47,0xFE
"SPI","disable",0.62556912,0.00000016,,
"SPI","enable",0.62565952,0.00000016,,
"SPI","result",0.62582672,0.00084848,0x01,0xB8
"SPI","disable",0.626704,0.00000016,,
"SPI","enable",0.62681936,0.00000016,,
"SPI","result",0.62696048,0.00084848,0x8B,0xB8
"SPI","disable",0.62784576,0.00000016,,
"SPI","enable",0.62794,0.00000016,,
"SPI","result",0.62809424,0.00084848,0x87,0x74
"SPI","disable",0.6289664,0.00000016,,
"SPI","enable",0.72564848,0.00000016,,
"SPI","result",0.72582448,0.00084832,0x47,0xFE
"SPI","disable",0.72671104,0.00000016,,
"SPI","enable",0.7268016,0.00000016,,
"SPI","result",0.72695824,0.00084832,0x01,0xB8
"SPI","disable",0.72784608,0.00000016,,
"SPI","enable",0.7279432,0.00000016,,
"SPI","result",0.728092,0.00084832,0x8B,0xB8
"SPI","disable",0.7289696,0.00000016,,
"SPI","enable",0.729064,0.00000016,,
"SPI","result",0.72922576,0.00084832,0x87,0x74
"SPI","disable",0.73010848,0.00000016,,
"SPI","enable",0.82679056,0.00000016,,
"SPI","result",0.826956,0.00084832,0x47,0xFE
"SPI","disable",0.82783488,0.00000016,,
"SPI","enable",0.82792544,0.00000016,,
"SPI","result",0.82808976,0.00084832,0x01,0xB8
"SPI","disable",0.82896992,0.00000016,,
"SPI","enable",0.82906704,0.00000016,,
"SPI","result",0.82922352,0.00084832,0x8B,0xB8
"SPI","disable",0.83011152,0.00000016,,
"SPI","enable",0.83020592,0.00000016,,
"SPI","result",0.83035728,0.00084832,0x87,0x74
"SPI","disable",0.83123232,0.00000016,,
"SPI","enable",0.9279144,0.00000016,,
"SPI","result",0.92808736,0.00084848,0x47,0xFE
"SPI","disable",0.92897696,0.00000016,,
"SPI","enable",0.92906736,0.00000016,,
"SPI","result",0.92922112,0.00084848,0x01,0xB8
"SPI","disable",0.93009376,0.00000016,,
"SPI","enable",0.93019104,0.00000016,,
"SPI","result",0.93035488,0.00084848,0x8B,0xB8
"SPI","disable",0.93123552,0.00000016,,
"SPI","enable",0.93132976,0.00000016,,
"SPI","result",0.93148864,0.00084848,0x87,0x74
"SPI","disable",0.93237424,0.00000016,,
"SPI","enable",1.02905648,0.00000016,,
"SPI","result",1.02921888,0.00084848,0x47,0xFE
"SPI","disable",1.0301008,0.00000016,,
"SPI","enable",1.03019136,0.00000016,,
"SPI","result",1.03035264,0.00084848,0x01,0xB8
"SPI","disable",1.03123584,0.00000016,,
"SPI","enable",1.03133296,0.00000016,,
"SPI","result",1.0314864,0.00084848,0x8B,0xB8
"SPI","disable",1.03235936,0.00000016,,
"SPI","enable",1.03245376,0.00000016,,
"SPI","result",1.03262016,0.00084848,0x87,0x74
"SPI","disable",1.03349824,0.00000016,,
"SPI","enable",1.13018032,0.00000016,,
"SPI","result",1.1303504,0.00084832,0x47,0xFE
"SPI","disable",1.13122464,0.00000016,,
"SPI","enable",1.1313152,0.00000016,,
"SPI","result",1.131484,0.00084848,0x01,0xB8
"SPI","disable",1.13235968,0.00000016,,
"SPI","enable",1.1324568,0.00000016,,
"SPI","result",1.13261776,0.00084848,0x8B,0xB8
"SPI","disable",1.13350128,0.00000016,,
"SPI","enable",1.13359568,0.00000016,,
"SPI","result",1.13375152,0.00084848,0x87,0x74
"SPI","disable",1.13464016,0.00000016,,
"SPI","enable",1.23132224,0.00000016,,
"SPI","result",1.23148176,0.00084832,0x47,0xFE
"SPI","disable",1.23236672,0.00000016,,
"SPI","enable",1.23245712,0.00000016,,
"SPI","result",1.23261552,0.00084832,0x01,0xB8
"SPI","disable",1.2335016,0.00000016,,
"SPI","enable",1.23359888,0.00000016,,
"SPI","result",1.23374928,0.00084832,0x8B,0xB8
"SPI","disable",1.23462528,0.00000016,,
"SPI","enable",1.23471952,0.00000016,,
"SPI","result",1.23488304,0.00084832,0x87,0x74
"SPI","disable",1.235764,0.00000016,,
"SPI","enable",1.33244608,0.00000016,,
"SPI","result",1.33261312,0.00084848,0x47,0xFE
"SPI","disable",1.33349056,0.00000016,,
"SPI","enable",1.33358112,0.00000016,,
"SPI","result",1.33374688,0.00084848,0x01,0xB8
"SPI","disable",1.3346256,0.00000016,,
"SPI","enable",1.33472272,0.00000016,,
"SPI","result",1.33488064,0.00084848,0x8B,0xB8
"SPI","disable",1.3357672,0.00000016,,
"SPI","enable",1.33586144,0.00000016,,
"SPI","result",1.3360144,0.00084848,0x87,0x74
"SPI","disable",1.33688784,0.00000016,,
"SPI","enable",1.43362336,0.00000016,,
"SPI","result",1.43374464,0.00084848,0x47,0xFE
"SPI","disable",1.43463152,0.00000016,,
"SPI","enable",1.43472208,0.00000016,,
"SPI","result",1.4348784,0.00084848,0x01,0xB8
"SPI","disable",1.43576656,0.00000016,,
"SPI","enable",1.43586368,0.00000016,,
"SPI","result",1.4361256,0.00084832,0x8B,0xB8
"SPI","disable",1.43699872,0.00000016,,
"SPI","enable",1.43709296,0.00000016,,
"SPI","result",1.43725936,0.00084832,0x87,0x74
"SPI","disable",1.43813744,0.00000016,,
"SPI","enable",1.5348272,0.00000016,,
"SPI","result",1.53498944,0.00084848,0x47,0xFE
"SPI","disable",1.53587168,0.00000016,,
"SPI","enable",1.53596208,0.00000016,,
"SPI","result",1.5361232,0.00084848,0x01,0xB8
"SPI","disable",1.53700656,0.00000016,,
"SPI","enable",1.53710384,0.00000016,,
"SPI","result",1.53725696,0.00084848,0x8B,0xB8
"SPI","disable",1.53813024,0.00000016,,
"SPI","enable",1.53822448,0.00000016,,
"SPI","result",1.53839072,0.00084848,0x87,0x74
"SPI","disable",1.53926896,0.00000016,,
"SPI","enable",1.60588608,0.00000016,,
"SPI","result",1.60607632,0.00084832,0x47,0xFE
"SPI","disable",1.60694864,0.00000016,,
"SPI","enable",1.6070392,0.00000016,,
"SPI","result",1.60721008,0.00084832,0x01,0xB8
"SPI","disable",1.60808368,0.00000016,,
"SPI","enable",1.6081808,0.00000016,,
"SPI","result",1.60834384,0.00084832,0x8B,0xB8
"SPI","disable",1.60922528,0.00000016,,
"SPI","enable",1.60931968,0.00000016,,
"SPI","result",1.6094776,0.00084832,0x87,0x74
"SPI","disable",1.61036416,0.00000016,,
"SPI","enable",1.61060992,0.00000016,,
"SPI","result",1.61072464,0.00084848,0x47,0xF2
"SPI","disable",1.6116,0.00000016,,
"SPI","enable",1.61169056,0.00000016,,
"SPI","result",1.6118584,0.00084848,0x0D,0xB8
"SPI","disable",1.61273504,0.00000016,,
"SPI","enable",1.61283216,0.00000016,,
"SPI","result",1.61299216,0.00084848,0x07,0xB8
"SPI","disable",1.61387664,0.00000016,,
"SPI","enable",1.61397104,0.00000016,,
"SPI","result",1.61412592,0.00084848,0x87,0xF8
"SPI","disable",1.61501552,0.00000016,,
"SPI","enable",1.61514496,0.00000016,,
"SPI","result",1.61525968,0.00084848,0x47,0xFE
"SPI","disable",1.6161448,0.00000016,,
"SPI","enable",1.6162352,0.00000016,,
"SPI","result",1.61639344,0.00084848,0x01,0xB8
"SPI","disable",1.61727984,0.00000016,,
"SPI","enable",1.61737696,0.00000016,,
"SPI","result",1.6175272,0.00084848,0x6B,0xB8
"SPI","disable",1.61840336,0.00000016,,
"SPI","enable",1.6184976,0.00000016,,
"SPI","result",1.61866096,0.00084848,0x87,0x94
"SPI","disable",1.61954208,0.00000016,,
"SPI","enable",1.61979744,0.00000016,,
"SPI","result",1.61990816,0.00084848,0x47,0xFE
"SPI","disable",1.62078752,0.00000016,,
"SPI","enable",1.62087808,0.00000016,,
"SPI","result",1.62104192,0.00084848,0x01,0xB8
"SPI","disable",1.62192256,0.00000016,,
"SPI","enable",1.62201968,0.00000016,,
"SPI","result",1.62217568,0.00084848,0x6B,0xB8
"SPI","disable",1.62306416,0.00000016,,
"SPI","enable",1.62315856,0.00000016,,
"SPI","result",1.62330944,0.00084848,0x87,0x94
"SPI","disable",1.62489344,0.00000016,,
"SPI","enable",1.62514864,0.00000016,,
"SPI","result",1.6252368,0.00084848,0x47,0xFE
"SPI","disable",1.62612064,0.00000016,,
"SPI","enable",1.6262112,0.00000016,,
"SPI","result",1.62637056,0.00084848,0x01,0xB8
"SPI","disable",1.62725568,0.00000016,,
"SPI","enable",1.6273528,0.00000016,,
"SPI","result",1.62750432,0.00084848,0x6B,0xB8
"SPI","disable",1.62837936,0.00000016,,
"SPI","enable",1.6284736,0.00000016,,
"SPI","result",1.62863808,0.00084848,0x87,0x94
"SPI","disable",1.62951808,0.00000016,,
"SPI","enable",1.62977328,0.00000016,,
"SPI","result",1.62988528,0.00084832,0x47,0xFE
"SPI","disable",1.63076352,0.00000016,,
"SPI","enable",1.63085392,0.00000016,,
"SPI","result",1.63101904,0.00084832,0x01,0xB8
"SPI","disable",1.63189856,0.00000016,,
"SPI","enable",1.63199568,0.00000016,,
"SPI","result",1.6321528,0.00084832,0x6B,0xB8
"SPI","disable",1.63304016,0.00000016,,
"SPI","enable",1.6331344,0.00000016,,
"SPI","result",1.63328656,0.00084832,0x87,0x94
"SPI","disable",1.6341704,0.00000016,,
"SPI","enable",1.63442576,0.00000016,,
"SPI","result",1.6345336,0.00084848,0x47,0xFE
"SPI","disable",1.63541584,0.00000016,,
"SPI","enable",1.6355064,0.00000016,,
"SPI","result",1.63566736,0.00084848,0x01,0xB8
"SPI","disable",1.63655088,0.00000016,,
"SPI","enable",1.636648,0.00000016,,
"SPI","result",1.63680112,0.00084848,0x6B,0xB8
"SPI","disable",1.6376744,0.00000016,,
"SPI","enable",1.63776864,0.00000016,,
"SPI","result",1.63793488,0.00084848,0x87,0x94
"SPI","disable",1.63881328,0.00000016,,
"SPI","enable",1.63906848,0.00000016,,
"SPI","result",1.63918208,0.00084848,0x47,0xFE
"SPI","disable",1.64005872,0.00000016,,
"SPI","enable",1.64014912,0.00000016,,
"SPI","result",1.64031584,0.00084848,0x01,0xB8
"SPI","disable",1.64138512,0.00000016,,
"SPI","enable",1.64148224,0.00000016,,
"SPI","result",1.64167632,0.00084848,0x6B,0xB8
"SPI","disable",1.64256288,0.00000016,,
"SPI","enable",1.64265728,0.00000016,,
"SPI","result",1.64281008,0.00084848,0x87,0x94
"SPI","disable",1.64368368,0.00000016,,
"SPI","enable",1.64393888,0.00000016,,
"SPI","result",1.64405728,0.00084832,0x47,0xFE
"SPI","disable",1.6449472,0.00000016,,
"SPI","enable",1.6450376,0.00000016,,
"SPI","result",1.64519104,0.00084832,0x01,0xB8
"SPI","disable",1.646064,0.00000016,,
"SPI","enable",1.64616128,0.00000016,,
"SPI","result",1.6463248,0.00084832,0x6B,0xB8
"SPI","disable",1.64720576,0.00000016,,
"SPI","enable",1.6473,0.00000016,,
"SPI","result",1.64745856,0.00084832,0x87,0x94
"SPI","disable",1.648336,0.00000016,,
"SPI","enable",1.6485912,0.00000016,,
"SPI","result",1.6487056,0.00084848,0x47,0xFE
"SPI","disable",1.64958144,0.00000016,,
"SPI","enable",1.64967184,0.00000016,,
"SPI","result",1.64983936,0.00084848,0x01,0xB8
"SPI","disable",1.65071632,0.00000016,,
"SPI","enable",1.65081344,0.00000016,,
"SPI","result",1.65097312,0.00084848,0x6B,0xB8
"SPI","disable",1.65185808,0.00000016,,
"SPI","enable",1.65195232,0.00000016,,
"SPI","result",1.65210688,0.00084848,0x87,0x94
"SPI","disable",1.6529968,0.00000016,,
"SPI","enable",1.65325216,0.00000016,,
"SPI","result",1.65335408,0.00084832,0x47,0xFE
"SPI","disable",1.65524688,0.00000016,,
"SPI","enable",1.65533728,0.00000016,,
"SPI","result",1.65550816,0.00084848,0x01,0xB8
"SPI","disable",1.65638176,0.00000016,,
"SPI","enable",1.65647904,0.00000016,,
"SPI","result",1.65664192,0.00084848,0x6B,0xB8
"SPI","disable",1.65752352,0.00000016,,
"SPI","enable",1.65761776,0.00000016,,
"SPI","result",1.65777568,0.00084848,0x87,0x94
"SPI","disable",1.65866224,0.00000016,,
"SPI","enable",1.65891744,0.00000016,,
"SPI","result",1.65902288,0.00084832,0x47,0xFE
"SPI","disable",1.65990768,0.00000016,,
"SPI","enable",1.65999824,0.00000016,,
"SPI","result",1.66015664,0.00084832,0x01,0xB8
"SPI","disable",1.66104272,0.00000016,,
"SPI","enable",1.66113984,0.00000016,,
"SPI","result",1.6612904,0.00084832,0x6B,0xB8
"SPI","disable",1.66216624,0.00000016,,
"SPI","enable",1.66226064,0.00000016,,
"SPI","result",1.66242416,0.00084832,0x87,0x94
"SPI","disable",1.66329648,0.00000016,,
"SPI","enable",1.66355184,0.00000016,,
"SPI","result",1.6636712,0.00084848,0x47,0xFE
"SPI","disable",1.66456,0.00000016,,
"SPI","enable",1.66465056,0.00000016,,
"SPI","result",1.66480496,0.00084848,0x01,0xB8
"SPI","disable",1.66569504,0.00000016,,
"SPI","enable",1.66579216,0.00000016,,
"SPI","result",1.66593872,0.00084848,0x6B,0xB8
"SPI","disable",1.66681856,0.00000016,,
"SPI","enable",1.66691296,0.00000016,,
"SPI","result",1.66707248,0.00084848,0x87,0x94
"SPI","disable",1.66902192,0.00000016,,
"SPI","enable",1.66927728,0.00000016,,
"SPI","result",1.66945344,0.00084832,0x47,0xFE
"SPI","disable",1.67033984,0.00000016,,
"SPI","enable",1.67043024,0.00000016,,
"SPI","result",1.6705872,0.00084832,0x01,0xB8
"SPI","disable",1.67147472,0.00000016,,
"SPI","enable",1.67157184,0.00000016,,
"SPI","result",1.67172096,0.00084832,0x6B,0xB8
"SPI","disable",1.6725984,0.00000016,,
"SPI","enable",1.67269264,0.00000016,,
"SPI","result",1.67285472,0.00084832,0x87,0x94
"SPI","disable",1.67373712,0.00000016,,
"SPI","enable",1.67399232,0.00000016,,
"SPI","result",1.67410176,0.00084848,0x47,0xFE
"SPI","disable",1.67497408,0.00000016,,
"SPI","enable",1.67506448,0.00000016,,
"SPI","result",1.67523552,0.00084848,0x01,0xB8
"SPI","disable",1.67610896,0.00000016,,
"SPI","enable",1.67620624,0.00000016,,
"SPI","result",1.67636928,0.00084848,0x6B,0xB8
"SPI","disable",1.67725072,0.00000016,,
"SPI","enable",1.67734496,0.00000016,,
"SPI","result",1.67750304,0.00084848,0x87,0x94
"SPI","disable",1.67838944,0.00000016,,
"SPI","enable",1.67864464,0.00000016,,
"SPI","result",1.67875024,0.00084832,0x47,0xFE
"SPI","disable",1.67963488,0.00000016,,
"SPI","enable",1.67972544,0.00000016,,
"SPI","result",1.679884,0.00084832,0x01,0xB8
"SPI","disable",1.68154976,0.00000016,,
"SPI","enable",1.68164688,0.00000016,,
"SPI","result",1.68181136,0.00084832,0x6B,0xB8
"SPI","disable",1.68269136,0.00000016,,
"SPI","enable",1.68278576,0.00000016,,
"SPI","result",1.68294512,0.00084832,0x87,0x94
"SPI","disable",1.68383024,0.00000016,,
"SPI","enable",1.68408544,0.00000016,,
"SPI","result",1.68419232,0.00084832,0x47,0xFE
"SPI","disable",1.68507568,0.00000016,,
"SPI","enable",1.68516608,0.00000016,,
"SPI","result",1.68532592,0.00084848,0x01,0xB8
"SPI","disable",1.68621056,0.00000016,,
"SPI","enable",1.68630784,0.00000016,,
"SPI","result",1.68645968,0.00084848,0x6B,0xB8
"SPI","disable",1.68733424,0.00000016,,
"SPI","enable",1.68742848,0.00000016,,
"SPI","result",1.68759344,0.00084848,0x87,0x94
"SPI","disable",1.68848256,0.00000016,,
"SPI","enable",1.68873776,0.00000016,,
"SPI","result",1.68884064,0.00084848,0x47,0xFE
"SPI","disable",1.689728,0.00000016,,
"SPI","enable",1.6898184,0.00000016,,
"SPI","result",1.6899744,0.00084848,0x01,0xB8
"SPI","disable",1.69086304,0.00000016,,
"SPI","enable",1.69096016,0.00000016,,
"SPI","result",1.69110816,0.00084832,0x6B,0xB8
"SPI","disable",1.69198656,0.00000016,,
"SPI","enable",1.6920808,0.00000016,,
"SPI","result",1.69224192,0.00084832,0x87,0x94
"SPI","disable",1.69382608,0.00000016,,
"SPI","enable",1.69408144,0.00000016,,
"SPI","result",1.69416928,0.00084848,0x47,0xFE
"SPI","disable",1.69505344,0.00000016,,
"SPI","enable",1.695144,0.00000016,,
"SPI","result",1.69530304,0.00084848,0x01,0xB8
"SPI","disable",1.69618848,0.00000016,,
"SPI","enable",1.6962856,0.00000016,,
"SPI","result",1.6964368,0.00084848,0x6B,0xB8
"SPI","disable",1.697312,0.00000016,,
"SPI","enable",1.6974064,0.00000016,,
"SPI","result",1.69757056,0.00084848,0x87,0x94
"SPI","disable",1.69845088,0.00000016,,
"SPI","enable",1.69870608,0.00000016,,
"SPI","result",1.69881776,0.00084832,0x47,0xFE
"SPI","disable",1.69970576,0.00000016,,
"SPI","enable",1.69979632,0.00000016,,
"SPI","result",1.69995152,0.00084832,0x01,0xB8
"SPI","disable",1.7008408,0.00000016,,
"SPI","enable",1.70093792,0.00000016,,
"SPI","result",1.70108528,0.00084832,0x6B,0xB8
"SPI","disable",1.70196432,0.00000016,,
"SPI","enable",1.70205872,0.00000016,,
"SPI","result",1.70221904,0.00084832,0x87,0x94
"SPI","disable",1.7031032,0.00000016,,
"SPI","enable",1.7033584,0.00000016,,
"SPI","result",1.70346608,0.00084848,0x47,0xFE
"SPI","disable",1.70472,0.00000016,,
"SPI","enable",1.7048104,0.00000016,,
"SPI","result",1.70494,0.00084832,0x01,0xB8
"SPI","disable",1.70581872,0.00000016,,
"SPI","enable",1.705916,0.00000016,,
"SPI","result",1.7061872,0.00084832,0x8B,0xB8
"SPI","disable",1.70706896,0.00000016,,
"SPI","enable",1.70716336,0.00000016,,
"SPI","result",1.70732096,0.00084832,0x87,0x74
"SPI","disable",1.70820784,0.00000016,,
"SPI","enable",1.70845648,0.00000016,,
"SPI","result",1.708568,0.00084848,0x47,0x7A
"SPI","disable",1.70944656,0.00000016,,
"SPI","enable",1.70953712,0.00000016,,
"SPI","result",1.70970176,0.00084848,0x85,0xB8
"SPI","disable",1.71059104,0.00000016,,
"SPI","enable",1.71090544,0.00000016,,
"SPI","result",1.71106224,0.00084848,0xAA,0xB8
"SPI","disable",1.71194992,0.00000016,,
"SPI","enable",1.71209376,0.00000016,,
"SPI","result",1.71230944,0.00084832,0xAA,0x55
"SPI","disable",1.71319248,0.00000016,,
"SPI","enable",1.71334864,0.00000016,,
"SPI","result",1.71355664,0.00084832,0xAA,0x55
"SPI","disable",1.71442928,0.00000016,,
"SPI","enable",1.7145856,0.00000016,,
"SPI","result",1.71480368,0.00084848,0xAA,0x55
"SPI","disable",1.71588336,0.00000016,,
"SPI","enable",1.71603952,0.00000016,,
"SPI","result",1.7162776,0.00084832,0xAA,0x55
"SPI","disable",1.71715632,0.00000016,,
"SPI","enable",1.71731264,0.00000016,,
"SPI","result",1.71752464,0.00084848,0xAA,0x55
"SPI","disable",1.71841136,0.00000016,,
"SPI","enable",1.71856768,0.00000016,,
"SPI","result",1.71877184,0.00084832,0xAA,0x55
"SPI","disable",1.71964816,0.00000016,,
"SPI","enable",1.7198064,0.00000016,,
"SPI","result",1.72001904,0.00084832,0xAA,0x55
"SPI","disable",1.72089648,0.00000016,,
"SPI","enable",1.7210528,0.00000016,,
"SPI","result",1.72126608,0.00084848,0xAA,0x55
"SPI","disable",1.72215152,0.00000016,,
"SPI","enable",1.72230784,0.00000016,,
"SPI","result",1.72251328,0.00084832,0xAA,0x55
"SPI","disable",1.72338832,0.00000016,,
"SPI","enable",1.72354944,0.00000016,,
"SPI","result",1.72376032,0.00084848,0xAA,0x55
"SPI","disable",1.724648,0.00000016,,
"SPI","enable",1.72576224,0.00000016,,
"SPI","result",1.72591456,0.00084832,0xAA,0x55
"SPI","disable",1.72678864,0.00000016,,
"SPI","enable",1.7269448,0.00000016,,
"SPI","result",1.7271616,0.00084848,0xAA,0x55
"SPI","disable",1.72804352,0.00000016,,
"SPI","enable",1.72819984,0.00000016,,
"SPI","result",1.7284088,0.00084832,0xAA,0x55
"SPI","disable",1.72929856,0.00000016,,
"SPI","enable",1.72945472,0.00000016,,
"SPI","result",1.72965584,0.00084848,0xAA,0x55
"SPI","disable",1.73054496,0.00000016,,
"SPI","enable",1.73070304,0.00000016,,
"SPI","result",1.73090304,0.00084832,0xAA,0x55
"SPI","disable",1.73178368,0.00000016,,
"SPI","enable",1.73194,0.00000016,,
"SPI","result",1.73215024,0.00084832,0xAA,0x55
"SPI","disable",1.73303872,0.00000016,,
"SPI","enable",1.7331968,0.00000016,,
"SPI","result",1.73339728,0.00084848,0xAA,0x55
"SPI","disable",1.73427744,0.00000016,,
"SPI","enable",1.73443376,0.00000016,,
"SPI","result",1.73464448,0.00084832,0xAA,0x55
"SPI","disable",1.73553152,0.00000016,,
"SPI","enable",1.73568768,0.00000016,,
"SPI","result",1.73589152,0.00084848,0xAA,0x55
"SPI","disable",1.73676832,0.00000016,,
"SPI","enable",1.73692464,0.00000016,,
"SPI","result",1.73713872,0.00084832,0xAA,0x55
"SPI","disable",1.73802336,0.00000016,,
"SPI","enable",1.73817952,0.00000016,,
"SPI","result",1.73838592,0.00084832,0xAA,0x55
"SPI","disable",1.73926016,0.00000016,,
"SPI","enable",1.73941648,0.00000016,,
"SPI","result",1.73963296,0.00084848,0xAA,0x55
"SPI","disable",1.74050656,0.00000016,,
"SPI","enable",1.7406648,0.00000016,,
"SPI","result",1.74088016,0.00084832,0xAA,0x55
"SPI","disable",1.74176336,0.00000016,,
"SPI","enable",1.74191968,0.00000016,,
"SPI","result",1.7421272,0.00084848,0xAA,0x55
"SPI","disable",1.74300032,0.00000016,,
"SPI","enable",1.74315664,0.00000016,,
"SPI","result",1.74326096,0.00084848,0x87,0x55
"SPI","disable",1.74507792,0.00000016,,
"SPI","enable",1.74523232,0.00000016,,
"SPI","result",1.7454152,0.00084832,0x47,0x76
"SPI","disable",1.74629488,0.00000016,,
"SPI","enable",1.74638544,0.00000016,,
"SPI","result",1.74654896,0.00084832,0x89,0xB8
"SPI","disable",1.74742992,0.00000016,,
"SPI","enable",1.74752704,0.00000016,,
"SPI","result",1.74768272,0.00084832,0x00,0xB8
"SPI","disable",1.74857152,0.00000016,,
"SPI","enable",1.74868384,0.00000016,,
"SPI","result",1.74881632,0.00084848,0x87,0xFF
"SPI","disable",1.74970176,0.00000016,,
"SPI","enable",1.74985888,0.00000016,,
"SPI","result",1.74995008,0.00084848,0x47,0x42
"SPI","disable",1.75083104,0.00000016,,
"SPI","enable",1.7509216,0.00000016,,
"SPI","result",1.75108384,0.00084848,0xBD,0xB8
"SPI","disable",1.75196608,0.00000016,,
"SPI","enable",1.7520632,0.00000016,,
"SPI","result",1.7522176,0.00084848,0x07,0xB8
"SPI","disable",1.7542056,0.00000016,,
"SPI","enable",1.75429984,0.00000016,,
"SPI","result",1.75448512,0.00084848,0x87,0xF8
"SPI","disable",1.7553624,0.00000016,,
"SPI","enable",1.8520168,0.00000016,,
"SPI","result",1.8521016,0.00084848,0x47,0xFE
"SPI","disable",1.85298896,0.00000016,,
"SPI","enable",1.85307936,0.00000016,,
"SPI","result",1.85323536,0.00084848,0x01,0xB8
"SPI","disable",1.85426384,0.00000016,,
"SPI","enable",1.85436096,0.00000016,,
"SPI","result",1.85448256,0.00084832,0x8B,0xB8
"SPI","disable",1.85536928,0.00000016,,
"SPI","enable",1.85546368,0.00000016,,
"SPI","result",1.85561632,0.00084832,0x87,0x74
"SPI","disable",1.85649008,0.00000016,,
"SPI","enable",1.9532056,0.00000016,,
"SPI","result",1.95334624,0.00084832,0x47,0xFE
"SPI","disable",1.95500976,0.00000016,,
"SPI","enable",1.95510032,0.00000016,,
"SPI","result",1.9552736,0.00084832,0x01,0xB8
"SPI","disable",1.95616288,0.00000016,,
"SPI","enable",1.95626,0.00000016,,
"SPI","result",1.95640736,0.00084832,0x8B,0xB8
"SPI","disable",1.957296,0.00000016,,
"SPI","enable",1.95739024,0.00000016,,
"SPI","result",1.95754112,0.00084832,0x87,0x74
"SPI","disable",1.95841664,0.00000016,,
"SPI","enable",2.0224192,0.00000016,,
"SPI","result",2.02261872,0.00084848,0x47,0xFE
"SPI","disable",2.02349968,0.00000016,,
"SPI","enable",2.02359024,0.00000016,,
"SPI","result",2.02375248,0.00084848,0x01,0xB8
"SPI","disable",2.025028,0.00000016,,
"SPI","enable",2.02512512,0.00000016,,
"SPI","result",2.0252264,0.00084832,0x8B,0xB8
"SPI","disable",2.02611536,0.00000016,,
"SPI","enable",2.0262096,0.00000016,,
"SPI","result",2.02636016,0.00084832,0x87,0x74
"SPI","disable",2.0272456,0.00000016,,
"SPI","enable",2.02749136,0.00000016,,
"SPI","result",2.0276072,0.00084848,0x47,0xB2
"SPI","disable",2.0284816,0.00000016,,
"SPI","enable",2.028572,0.00000016,,
"SPI","result",2.02874096,0.00084848,0x4D,0xB8
"SPI","disable",2.03029728,0.00000016,,
"SPI","enable",2.03039456,0.00000016,,
"SPI","result",2.03055504,0.00084848,0x07,0xB8
"SPI","disable",2.03143904,0.00000016,,
"SPI","enable",2.03153328,0.00000016,,
